\\RASPBERRYPI\PiShare\candump-2020-06-02_191626.log
// 2011 Ford F350 KR 4x4
// Medium Speed CAN Bus
// Seat Memory Key Off


(1591150604.444945) can1 503#030100
(1591150604.450987) can1 000#
(1591150604.458084) can1 501#0101000000000000
(1591150604.464128) can1 083#000FFF7420007EC9
(1591150604.465207) can1 10D#0000000000000000
(1591150604.466149) can1 110#0005BB0000000000
(1591150604.467112) can1 385#00EA02F219000000
(1591150604.468095) can1 3A0#1100800289240000
(1591150604.468679) can1 50C#0C0100
(1591150604.469679) can1 3B0#0000000000000000
(1591150604.470686) can1 3B2#000000730000FE00
(1591150604.471685) can1 3B3#0043050000000000
(1591150604.472731) can1 3B8#6800000000000000
(1591150604.473726) can1 000#
(1591150604.473747) can1 3B9#6F6F6F6F176FC096
(1591150604.474660) can1 3BA#0000000005160000
(1591150604.475671) can1 3BC#0000207F6A00A100
(1591150604.476651) can1 3C3#0000010001410B00
(1591150604.477649) can1 3C4#0034940000C0A4B0
(1591150604.478684) can1 3C6#0000000000000000
(1591150604.479707) can1 3D0#1C41000000000000
(1591150604.480753) can1 3E0#0000000083C00000
(1591150604.481784) can1 3E2#000000000000804A
(1591150604.482759) can1 40A#C102343033323600
(1591150604.483789) can1 423#FFFFFFFF20000000
(1591150604.484806) can1 425#900000C00000B1C0
(1591150604.485412) can1 541#410100
(1591150604.486387) can1 426#AA00000000008800
(1591150604.487450) can1 42C#0000000000000000
(1591150604.494062) can1 10D#0080000000000000
(1591150604.496038) can1 3B2#000000730000FE00
(1591150604.504479) can1 3B3#0040050000000000
(1591150604.514169) can1 3C3#0000010001410B00
(1591150604.515237) can1 426#AA00000000008880
(1591150604.524234) can1 3C4#0034940000C2A4B0
(1591150604.534156) can1 3C6#0000000000000000
(1591150604.540654) can1 000#
(1591150604.564415) can1 3B0#0D00000000000080
(1591150604.565287) can1 3BC#0000207F6A00A100
(1591150604.566309) can1 423#FFFFFFFF20000000
(1591150604.567324) can1 425#900000C80000B1C0
(1591150604.568348) can1 426#AA00000000008800
(1591150604.614169) can1 426#AA00000000008800
(1591150604.622695) can1 3EB#801E7080805000
(1591150604.625775) can1 53B#410200
(1591150604.664337) can1 3B0#0D00000000000000
(1591150604.665220) can1 3BC#0000207F6A00A140
(1591150604.666251) can1 3F2#000000000000804B
(1591150604.667325) can1 40A#C10401630A461101
(1591150604.668254) can1 423#FFFFFFFF20000000
(1591150604.669279) can1 425#900000C00000B1C0
(1591150604.670304) can1 426#AA00000000008800
(1591150604.696863) can1 124#0202000000000000
(1591150604.697766) can1 35E#8000000000000000
(1591150604.703050) can1 317#0000000000000000
(1591150604.732310) can1 541#0B0200
(1591150604.735537) can1 501#0B01000000000000
(1591150604.747209) can1 503#0B0100
(1591150604.750424) can1 3F1#0000000000000008
(1591150604.764300) can1 3B0#0D00000000000000
(1591150604.765200) can1 3BC#0000207F6A00A100
(1591150604.766238) can1 423#FFFFFFFF20000000
(1591150604.767269) can1 425#900000C00000B1C8
(1591150604.768309) can1 426#AA00000000008800
(1591150604.788197) can1 50C#270400
(1591150604.822250) can1 466#103C3853C660A000
(1591150604.828165) can1 50C#0C0100
(1591150604.864311) can1 3B0#0D00000000000000
(1591150604.865199) can1 3BC#0000207F6A00A100
(1591150604.866218) can1 40A#C130090822450000
(1591150604.867294) can1 000#
(1591150604.867315) can1 423#FFFFFFFF20000000
(1591150604.868224) can1 425#900000C00000B1C0
(1591150604.869247) can1 426#AA00000000008800
(1591150604.904514) can1 083#000FFF5400007EC9
(1591150604.914237) can1 426#AA00000000008800
(1591150604.927952) can1 50C#0C0200
(1591150604.964351) can1 3B0#0D00000000000000
(1591150604.965230) can1 3BC#0000207F6A00A100
(1591150604.966252) can1 423#FFFFFFFF20000000
(1591150604.967269) can1 425#900000C00000B1C0
(1591150604.968291) can1 426#AA00000000008800
(1591150605.014126) can1 083#000FFF7410007EC9
(1591150605.014755) can1 527#3B1200
(1591150605.015699) can1 426#AA00000000008800
(1591150605.016738) can1 14040000 0302000000000000
(1591150605.064322) can1 000#
(1591150605.064519) can1 3B0#0D00000000000000
(1591150605.065303) can1 000#
(1591150605.065324) can1 3BC#0000207F6A00A100
(1591150605.066189) can1 40A#C00000B52758F700
(1591150605.067212) can1 423#FFFFFFFF20000000
(1591150605.068228) can1 425#900000C00000B1C0
(1591150605.069250) can1 426#AA00000000008800
(1591150605.109697) can1 503#0B0200
(1591150605.114135) can1 426#AA00000000008800
(1591150605.164203) can1 3B0#0D00000000000000
(1591150605.165191) can1 3BC#0000207F6A00A100
(1591150605.166221) can1 423#FFFFFFFF20000000
(1591150605.167236) can1 425#900000C00000B1C0
(1591150605.168259) can1 426#AA00000000008800
(1591150605.214450) can1 466#AA00000000008800
(1591150605.264257) can1 3B0#0D00000000000000
(1591150605.265233) can1 3BC#0000207F6A00A100
(1591150605.266207) can1 40A#C100314654385733
(1591150605.267230) can1 423#FFFFFFFF20000000
(1591150605.268246) can1 425#900000C00000B1C0
(1591150605.269298) can1 426#AA00000000008800
(1591150605.287973) can1 50C#270200
(1591150605.314330) can1 000#
(1591150605.314356) can1 426#AA00000000008800
(1591150605.364268) can1 3B0#0D00000000000000
(1591150605.365252) can1 3BC#0000207F6A00A100
(1591150605.366305) can1 423#FFFFFFFF20000000
(1591150605.367320) can1 425#900000C00000B1C0
(1591150605.368313) can1 426#AA00000000008800
(1591150605.382735) can1 527#3B1200
(1591150605.414220) can1 426#AA00000000008800
(1591150605.464170) can1 083#000FFF7400007EC9
(1591150605.465135) can1 385#00EA03F219000000
(1591150605.466157) can1 3B0#0D00000000000000
(1591150605.466756) can1 53B#410200
(1591150605.467720) can1 3BC#0000207F6A00A200
(1591150605.468767) can1 3E0#0000000083C00000
(1591150605.469797) can1 3E2#000000000000804B
(1591150605.470756) can1 40A#C101425434424542
(1591150605.471779) can1 423#FFFFFFFF20000000
(1591150605.472795) can1 425#900000C00000B1C0
(1591150605.473869) can1 426#AA00000000008800
(1591150605.474875) can1 10D#0000000000000000
(1591150605.475924) can1 42C#0000000000000000
(1591150605.484373) can1 3A0#1100800289240000
(1591150605.494216) can1 000#
(1591150605.494238) can1 3B2#000000734000FE00
(1591150605.504483) can1 3B3#0043050000000000
(1591150605.514131) can1 3C3#0000010001410B00
(1591150605.515153) can1 426#AA00000000008800
(1591150605.524241) can1 3C4#0034940000C0A4B0
(1591150605.534197) can1 3C6#0000000200000000
(1591150605.544214) can1 3D0#1C41000000000000
(1591150605.564403) can1 3B0#4D00000000000000
(1591150605.564869) can1 541#010200
(1591150605.565828) can1 3BC#0000207F6A00A200
(1591150605.566849) can1 423#FFFFFFFF20000000
(1591150605.567865) can1 425#900000C00000B1C0
(1591150605.568909) can1 426#AA00000000008800
(1591150605.614361) can1 426#AA00000000008800
(1591150605.622663) can1 3EB#801E7080805000
(1591150605.655063) can1 501#0302000100000000
(1591150605.664192) can1 3B0#0D00000000000000
(1591150605.665182) can1 3BC#0000207F6A00A200
(1591150605.666156) can1 40A#C102343033323600
(1591150605.667178) can1 423#FFFFFFFF20000000
(1591150605.668194) can1 425#900000C00000B1C0
(1591150605.669215) can1 426#AE00000000008800
(1591150605.702849) can1 399#0000000000000000
(1591150605.705042) can1 124#0202000000000000
(1591150605.707039) can1 35E#8000000000000000
(1591150605.709104) can1 3E7#0000000000000000
(1591150605.711094) can1 41A#00009860B8067590
(1591150605.715369) can1 426#AA00000000008800
(1591150605.730635) can1 125#0202000000000000
(1591150605.748021) can1 50C#270400
(1591150605.754801) can1 503#0B0200
(1591150605.764316) can1 3B0#0D00000002000000
(1591150605.765391) can1 000#
(1591150605.765413) can1 3BC#0000207F6A00A200
(1591150605.766328) can1 423#FFFFFFFF20000000
(1591150605.767343) can1 425#900000C00000B1C0
(1591150605.768366) can1 426#AA00000000008800
(1591150605.768960) can1 50C#0C0100
(1591150605.814190) can1 426#AA00000000008800
(1591150605.864392) can1 3B0#0D00000000000000
(1591150605.865220) can1 3BC#0000207F6A00A200
(1591150605.866208) can1 40A#C10401630A461101
(1591150605.867238) can1 423#FFFFFFFF20000000
(1591150605.868247) can1 425#900000C00000B1C0
(1591150605.869283) can1 426#AA00000000008800
(1591150605.914206) can1 426#AA00000000008800
(1591150605.947998) can1 50C#0B0200
(1591150605.954967) can1 501#0301000000000000
(1591150605.955708) can1 527#3B1100
(1591150605.956427) can1 503#0B0100
(1591150605.964286) can1 3B0#0D00000000000000
(1591150605.964975) can1 000#
(1591150605.964996) can1 541#010100
(1591150605.965850) can1 3BC#0000207F6A00A200
(1591150605.966467) can1 53B#410100
(1591150605.967440) can1 423#FFFFFFFF20000000
(1591150605.968455) can1 425#900000C00000B1C0
(1591150605.969480) can1 426#AA00000000008800
(1591150606.014347) can1 000#
(1591150606.014373) can1 426#AA00000000008800
(1591150606.064424) can1 3B0#0D00000000000000
(1591150606.065272) can1 3BC#0000207F6A00A200
(1591150606.066259) can1 40A#C110090822450000
(1591150606.067283) can1 423#FFFFFFFF20000000
(1591150606.068299) can1 425#900000C00000B1C0
(1591150606.069321) can1 426#AA00000000008800
(1591150606.114224) can1 426#AA00000000008800
(1591150606.128035) can1 50C#270200
(1591150606.164372) can1 3B0#0D00000000000000
(1591150606.165361) can1 3BC#0000207F6A00A200
(1591150606.166382) can1 423#FFFFFFFF20000000
(1591150606.167398) can1 425#900000C00000B1C0
(1591150606.168421) can1 426#AA00000000008800
(1591150606.214618) can1 426#AA00000000008800
(1591150606.221656) can1 527#3B1200
(1591150606.264245) can1 3B0#0D00000000000000
(1591150606.265339) can1 3BC#0000207F6A00A200
(1591150606.266218) can1 48A#C00000B527590300
(1591150606.267241) can1 423#FFFFFFFF20000000
(1591150606.268287) can1 425#900400C00000B1C0
(1591150606.269279) can1 426#EA00000000008800
(1591150606.306400) can1 53B#410200
(1591150606.314287) can1 426#AA00000000008800
(1591150606.364510) can1 3B0#0D00000000000000
(1591150606.365500) can1 3BC#0000207F6A00A200
(1591150606.366522) can1 423#FFFFFFFF20000000
(1591150606.367637) can1 000#
(1591150606.367659) can1 425#900000C00000B1C0
(1591150606.368559) can1 426#AA00000000008800
(1591150606.404421) can1 541#010200
(1591150606.414397) can1 426#AA00000000008800
(1591150606.464380) can1 083#000FFF7400007EC9
(1591150606.465340) can1 385#00EA02F219000000
(1591150606.466344) can1 3B0#0D00000000000000
(1591150606.467351) can1 7BC#0000207F6A00A300
(1591150606.468398) can1 3E0#0000000083C00000
(1591150606.469428) can1 3E2#400000000000804B
(1591150606.470404) can1 40A#C100314654385733
(1591150606.471428) can1 423#FFFFFFFF20000000
(1591150606.472443) can1 425#900000C00000B1C0
(1591150606.473476) can1 426#AA00000000008800
(1591150606.474485) can1 10D#0000000000000000
(1591150606.475547) can1 42C#0000000000000000
(1591150606.484525) can1 3A0#1100800289240008
(1591150606.494356) can1 3B2#000000730000FE00
(1591150606.495457) can1 501#0302000000000000
(1591150606.504548) can1 3B3#0043050000000000
(1591150606.514323) can1 3C3#0000010001410B00
(1591150606.515352) can1 426#AA00000000008800
(1591150606.524273) can1 3C4#0034940000C0A4B0
(1591150606.534289) can1 3C6#0000000000000000
(1591150606.564584) can1 3B0#0D00000000000000
(1591150606.565399) can1 3BC#0000207F6A00A300
(1591150606.566422) can1 423#FFFFFFFF20000000
(1591150606.567437) can1 425#900000C00000B1C0
(1591150606.568461) can1 426#AA00000000008800
(1591150606.581339) can1 503#0B0200
(1591150606.614302) can1 426#AA00000000008800
(1591150606.622676) can1 3EB#801E7080805000
(1591150606.664257) can1 3B0#0D00000000000000
(1591150606.665265) can1 3BC#0000207F6A00A300
(1591150606.666307) can1 000#
(1591150606.666329) can1 40A#C101425434424542
(1591150606.667245) can1 423#FFFFFFFF20000000
(1591150606.668346) can1 000#
(1591150606.668368) can1 425#900000C00000B1C0
(1591150606.669283) can1 426#AA00000000008800
(1591150606.713110) can1 124#0202000000000000
(1591150606.715234) can1 35E#8000000000000000
(1591150606.717291) can1 3E7#0000000000000000
(1591150606.718158) can1 399#0000000000000000
(1591150606.719080) can1 41A#00009860B80E7590
(1591150606.720057) can1 426#AA00000000008800
(1591150606.733635) can1 399#0000000000000000
(1591150606.753742) can1 125#0202000000000000
(1591150606.764341) can1 3B0#0D00000000000000
(1591150606.765347) can1 3BC#0000207F6A00A300
(1591150606.766369) can1 423#FFFFFFFF20000000
(1591150606.767385) can1 425#900000C00000B1C0
(1591150606.768438) can1 426#AA00000000008800
(1591150606.769009) can1 50C#270400
(1591150606.814335) can1 426#AA00000000008800
(1591150606.864382) can1 3B0#0D00000000000000
(1591150606.865410) can1 3BC#0000207F6A00A300
(1591150606.866399) can1 40A#C102343033323600
(1591150606.867407) can1 423#FFFFFFFF20000000
(1591150606.868509) can1 000#
(1591150606.868532) can1 425#900000C00000B1C0
(1591150606.869475) can1 426#AA00000000008800
(1591150606.914316) can1 426#AA00000000008810
(1591150606.935380) can1 501#0101000000000000
(1591150606.944214) can1 503#030100
(1591150606.944812) can1 541#410100
(1591150606.946555) can1 53B#3B0100
(1591150606.948065) can1 50C# 00C0100
(1591150606.958247) can1 527#270100
(1591150606.964677) can1 3B0#0D00000000000000
(1591150606.965491) can1 3BC#0000207F6A00A300
(1591150606.966527) can1 423#FFFFFFFF20000000
(1591150606.967540) can1 425#900000C00000B1C0
(1591150606.968555) can1 426#AA00000000008800
(1591150607.014278) can1 426#AA00000000008800
(1591150607.029431) can1 000#
(1591150607.064578) can1 000#
(1591150607.064605) can1 3B0#0D00000000000000
(1591150607.065307) can1 3BC#0000207F6A00A320
(1591150607.066297) can1 40A#C10401630A461101
(1591150607.067321) can1 423#FFFFFFFF20000000
(1591150607.068334) can1 425#900000C00100B1C0
(1591150607.069356) can1 426#AA00000000008800
(1591150607.114279) can1 426#AA00000000008800
(1591150607.128038) can1 50C#270200
(1591150607.164341) can1 3B0#0D00000000000000
(1591150607.165346) can1 3BC#0000207F6A00A300
(1591150607.166369) can1 423#FFFFFFFF20000000
(1591150607.167385) can1 425#900000C00000B1C0
(1591150607.168439) can1 426#AA00000000008800
(1591150607.214503) can1 426#AA00000000008800
(1591150607.224243) can1 527#0B1200
(1591150607.226447) can1 503#0B0100
(1591150607.227038) can1 53B#0B0100
(1591150607.235167) can1 501#0301000000000000
(1591150607.244436) can1 541#010100
(1591150607.264362) can1 3B0#0D00000000000000
(1591150607.265403) can1 3BC#0000207F6A00A308
(1591150607.266380) can1 40A#C110090822450000
(1591150607.267404) can1 423#FFFFFFFF20000000
(1591150607.268418) can1 425#900000C00000B1C0
(1591150607.269442) can1 426#AA00000040008800
(1591150607.314451) can1 426#AA00000000008800
(1591150607.364463) can1 3B0#0D00000000000000
(1591150607.365462) can1 3BC#0000207F6A00A300
(1591150607.366484) can1 423#FFFFFFFF20000000
(1591150607.367499) can1 425#900000C00000B1C0
(1591150607.368521) can1 466#AA00000000008800
(1591150607.408090) can1 50C#270200
(1591150607.414307) can1 426#AA00000000008800
(1591150607.464356) can1 000#
(1591150607.464381) can1 083#000FFF7400007EC9
(1591150607.465247) can1 385#00EA02F219000000
(1591150607.466339) can1 040#
(1591150607.466362) can1 3B0#0D00000000000200
(1591150607.467261) can1 3BC#0000207F6A00A300
(1591150607.468308) can1 3E0#0000000083C00000
(1591150607.469339) can1 3E2#000000000000804B
(1591150607.470360) can1 40A#C00000B527590F00
(1591150607.471354) can1 423#FFFFFFFF20000000
(1591150607.472389) can1 425#900000C00000B1C0
(1591150607.473412) can1 426#AA00000000008800
(1591150607.474500) can1 42C#0000000000000000
(1591150607.475533) can1 10D#0000000000000000
(1591150607.484514) can1 3A0#1100800289240000
(1591150607.494272) can1 3B2#000000730000FE00
(1591150607.504722) can1 3B3#0043050000000000
(1591150607.510750) can1 527#3B1200
(1591150607.514292) can1 3C3#0000010001410B00
(1591150607.515330) can1 426#AA00000000008800
(1591150607.524425) can1 3C4#0034940000C0A4B0
(1591150607.534503) can1 3C6#0000000000000000
(1591150607.544617) can1 000#
(1591150607.544641) can1 3D0#1C41000000000000
(1591150607.564385) can1 3B0#0D00000000000000
(1591150607.565385) can1 3BC#0000207F6A00A300
(1591150607.566407) can1 423#FFFFFFFF20000400
(1591150607.567412) can1 425#900000C00000B1C0
(1591150607.568444) can1 426#AA00000000008800
(1591150607.607099) can1 53B#410200
(1591150607.614304) can1 426#AA00000000008800
(1591150607.622771) can1 3EB#801E7080805000
(1591150607.664444) can1 3B0#0D00000000000000
(1591150607.665471) can1 3BC#0000207F6A00A300
(1591150607.666445) can1 40A#C100314654385733
(1591150607.667483) can1 423#FFFFFFFF20400000
(1591150607.668481) can1 425#900000C00000B1C0
(1591150607.669504) can1 426#AA00000000048800
(1591150607.715322) can1 426#AA00000000008800
(1591150607.716188) can1 399#0000000000000000
(1591150607.716803) can1 541#010200
(1591150607.721375) can1 124#0202000000000000
(1591150607.723452) can1 000#
(1591150607.723474) can1 35E#8000000000000000
(1591150607.725435) can1 3E7#0000000000000000
(1591150607.727443) can1 41A#00009860B8067590
(1591150607.735154) can1 399#0000000000000000
(1591150607.764546) can1 3B0#1D00000000000000
(1591150607.765420) can1 3BC#0000207F6A00A300
(1591150607.766444) can1 423#FFFFFFFF20000000
(1591150607.767459) can1 425#900000C00000B1C0
(1591150607.768482) can1 426#AA00000000008800
(1591150607.769100) can1 50C#270400
(1591150607.776680) can1 125#0202000000000000
(1591150607.814341) can1 426#AA00000000008800
(1591150607.815373) can1 501#0302000000000000
(1591150607.828099) can1 50C#0C0100
(1591150607.864336) can1 3B0#0D00000000000000
(1591150607.865339) can1 3BC#0000207F6A00A300
(1591150607.866297) can1 40A#C101425434424542
(1591150607.867335) can1 423#FFFFFFFF20000000
(1591150607.868335) can1 425#900000C00000B1C0
(1591150607.869358) can1 426#AA00000000008800
(1591150607.911855) can1 503#0B0200
(1591150607.914361) can1 426#AA00000000008800
(1591150607.964378) can1 3B0#0D00000000000000
(1591150607.965382) can1 3BC#0000207F6A00A300
(1591150607.966405) can1 423#FFFFFFFF20000000
(1591150607.967421) can1 425#900000C00000B1C0
(1591150607.968444) can1 426#AA00000000008800
(1591150608.014535) can1 426#AA00000000008800
(1591150608.064551) can1 3B0#0D00000000000000
(1591150608.065413) can1 3BC#0000207F6A00A300
(1591150608.066437) can1 40A#C302343033323600
(1591150608.067422) can1 423#FFFFFFFF20000000
(1591150608.068424) can1 425#900000C00000B1C0
(1591150608.069458) can1 426#AA00000000008800
(1591150608.114356) can1 426#AA00000000008800
(1591150608.164619) can1 3B0#0D00000000000000
(1591150608.165455) can1 3BC#0000207F6A00A300
(1591150608.166477) can1 423#FFFFFFFF20000000
(1591150608.167492) can1 425#900000C00000B1C0
(1591150608.168600) can1 000#
(1591150608.168622) can1 426#AA00000000008800
(1591150608.174045) can1 503#030100
(1591150608.175226) can1 501#0101000000000000
(1591150608.187401) can1 53B#3B0100
(1591150608.188170) can1 50C#0C0100
(1591150608.214536) can1 426#AA00000000008800
(1591150608.264419) can1 3B0#0D00000000000000
(1591150608.265394) can1 3BC#0000207F6A00A300
(1591150608.266385) can1 40A#C10401630A461101
(1591150608.267408) can1 423#FFFFFFFF20000000
(1591150608.268423) can1 425#900000C00000B1C0
(1591150608.269445) can1 426#AA00000000008800
(1591150608.274812) can1 503#0B0200
(1591150608.275771) can1 501#0B02000000000000
(1591150608.294907) can1 503#0B0100
(1591150608.314544) can1 426#AA00000000008800
(1591150608.365045) can1 3B0#0D00000000000000
(1591150608.366668) can1 3BC#0000207F6A00A300
(1591150608.368297) can1 423#FFFFFFFF20000000
(1591150608.369910) can1 425#900000C00000B1C0
(1591150608.371542) can1 426#AA00000000008800
(1591150608.414568) can1 426#AA00000000008800
(1591150608.464467) can1 083#000FFF7400007EC9
(1591150608.465407) can1 385#00EA02F219000000
(1591150608.466435) can1 3B0#0D00000000000000
(1591150608.467432) can1 3BC#0000207F6A00A400
(1591150608.468479) can1 3E0#0000000083C00000
(1591150608.469087) can1 50C#010200
(1591150608.470068) can1 3E2#000000000000804B
(1591150608.471063) can1 40A#C110090822450000
(1591150608.472085) can1 423#FFFFFFFF20800000
(1591150608.472683) can1 527#3B1100
(1591150608.473678) can1 425#900000C00000B1C0
(1591150608.474666) can1 10D#0000000000000000
(1591150608.475696) can1 426#AA00000000008800
(1591150608.476760) can1 42C#0000000000000000
(1591150608.484605) can1 3A0#1100800289240000
(1591150608.485207) can1 541#410100
(1591150608.487245) can1 53B#410100
(1591150608.494364) can1 3B2#000000730000FE00
(1591150608.504698) can1 3B3#0043050000000000
(1591150608.514390) can1 3C3#0000010001410B00
(1591150608.515448) can1 426#AA00000000008800
(1591150608.524479) can1 3C4#0034940040C0A4B0
(1591150608.544516) can1 3D0#1C41000000000000
(1591150608.555240) can1 501#0302000000000000
(1591150608.564478) can1 3B0#0D00000000000000
(1591150608.565477) can1 3BC#0000207F6A00A400
(1591150608.566500) can1 423#FFFFFFFF20000000
(1591150608.567514) can1 425#900000C00000B1C0
(1591150608.568538) can1 426#AA00000000008800
(1591150608.614365) can1 426#AA00000000008800
(1591150608.622717) can1 3EB#801E7080805000
(1591150608.637602) can1 503#0B0200
(1591150608.664390) can1 3B0#0D00000000000000
(1591150608.665386) can1 3BC#0000207F6A00A400
(1591150608.666369) can1 40A#C00000B527591B00
(1591150608.667392) can1 423#FFFFFFFF20000000
(1591150608.668407) can1 425#900000C00000B1C0
(1591150608.669515) can1 426#AA00000040008800
(1591150608.715370) can1 426#AA00000000008800
(1591150608.723673) can1 399#0000000800000000
(1591150608.729097) can1 124#0202000000000000
(1591150608.731210) can1 35E#8000000000000000
(1591150608.733266) can1 3E7#0000000000000000
(1591150608.735265) can1 41A#00009868B8067590
(1591150608.764588) can1 3B0#0D00000000000100
(1591150608.765570) can1 000#
(1591150608.765592) can1 3BC#0000207F6A00A400
(1591150608.767669) can1 423#FFFFFFFF20000000
(1591150608.768732) can1 000#
(1591150608.768754) can1 425#900000C00000B1C0
(1591150608.769244) can1 50C#270400
(1591150608.770218) can1 426#AA00200000008800
(1591150608.799742) can1 125#0202000000000000
(1591150608.814519) can1 426#AA00000000008800
(1591150608.864416) can1 3B0#0D00000000000000
(1591150608.865454) can1 3BC#0000207F6A00A400
(1591150608.866434) can1 40A#C100314654385733
(1591150608.867455) can1 423#FFFFFFFF20000000
(1591150608.868470) can1 425#900000C00000B1C0
(1591150608.869493) can1 426#AA00000000008800
(1591150608.914518) can1 426#AA00000000008800
(1591150608.964510) can1 3B0#0D00000040000000
(1591150608.965506) can1 3BC#0000207F6A00A400
(1591150608.966529) can1 423#FFFFFFFF20000000
(1591150608.967543) can1 425#900000C00000B1C0
(1591150608.968567) can1 426#AA00000000008800
(1591150608.987504) can1 000#
(1591150608.987529) can1 53B#3B0100
(1591150608.988225) can1 50C#0C0100
(1591150608.995362) can1 501#0101000000000000
(1591150609.000476) can1 503#030100
(1591150609.004413) can1 541#410100
(1591150609.004991) can1 527#270100
(1591150609.014404) can1 426#AA00000000008800
(1591150609.064454) can1 3B0#0D00000000000000
(1591150609.065428) can1 3BC#0000207F6A00A400
(1591150609.066379) can1 40A#C101425434424542
(1591150609.067401) can1 423#FFFFFFFF20000000
(1591150609.068416) can1 425#900000C00000B1C0
(1591150609.069439) can1 426#AA00000000008800
(1591150609.114509) can1 426#AA00000000008800
(1591150609.164537) can1 3B4#0D00000000000000
(1591150609.165531) can1 3BC#0000207F6A00A400
(1591150609.166553) can1 423#FFFFFFFF20000000
(1591150609.167567) can1 425#900000C00002B1C0
(1591150609.168622) can1 426#AA00000000008800
(1591150609.169179) can1 50C#270200
(1591150609.214635) can1 426#AA00000000008800
(1591150609.264433) can1 3B0#0D00000000000000
(1591150609.265474) can1 3BC#0000207F6A00A400
(1591150609.266454) can1 40A#C102343033323600
(1591150609.267474) can1 423#FFFFFFFF20000000
(1591150609.268493) can1 425#900000C00000B1C0
(1591150609.269514) can1 426#AA00000000008800
(1591150609.270503) can1 527#411200
(1591150609.287511) can1 53B#410100
(1591150609.314488) can1 426#AA00000000008800
(1591150609.364529) can1 3B0#0D00000000000000
(1591150609.365137) can1 541#0B0200
(1591150609.366104) can1 3BC#0000207F6A00A400
(1591150609.367125) can1 423#FFFFFFFF20000000
(1591150609.368143) can1 425#900000C00000B1C0
(1591150609.369163) can1 426#AA00000000008800
(1591150609.375245) can1 501#0301000000000000
(1591150609.383523) can1 503#0B0100
(1591150609.414437) can1 426#AA00800000008800
(1591150609.454420) can1 10D#0000000000000000
(1591150609.455421) can1 3D0#1C41000000000000
(1591150609.464635) can1 083#000FFF7400007EC9
(1591150609.465426) can1 385#00EA02F219000000
(1591150609.466463) can1 3B0#0D00000000000000
(1591150609.467459) can1 3BC#0000207F6A00A500
(1591150609.468501) can1 3E0#0000000083C00000
(1591150609.469551) can1 3E2#000000000000804B
(1591150609.470636) can1 000#
(1591150609.470658) can1 40A#C10401630A461101
(1591150609.471558) can1 423#FFFFFFFF20000000
(1591150609.472571) can1 425#900000C00000B1C0
(1591150609.473590) can1 426#AA00000000008800
(1591150609.474666) can1 42C#0000000000000000
(1591150609.484797) can1 10D#0000000000000000
(1591150609.485766) can1 3A0#1100A00289240000
(1591150609.494410) can1 3B2#000000730000FE00
(1591150609.504780) can1 3B3#0043050000000000
(1591150609.514415) can1 3C3#0000010001410B00
(1591150609.515438) can1 426#AA00000000008800
(1591150609.524544) can1 3C4#0034940000C0A4B0
(1591150609.534648) can1 3C6#0000000000000000
(1591150609.544506) can1 3D0#1C41000000000000
(1591150609.548435) can1 50C#270200
(1591150609.564499) can1 3B0#0D00000000000000
(1591150609.565497) can1 3BC#0000207F6A00A500
(1591150609.566618) can1 000#
(1591150609.566640) can1 423#FFFFFFFF20000000
(1591150609.567524) can1 425#900000C00000B1C0
(1591150609.568559) can1 426#AA00000000008800
(1591150609.614553) can1 426#AA00000000008800
(1591150609.622767) can1 3EB#801E7080805020
(1591150609.638739) can1 527#3B1200
(1591150609.664493) can1 3B0#0D00000000000000
(1591150609.665539) can1 3BC#0000207F6A00A500
(1591150609.666525) can1 40A#C110090822450000
(1591150609.667650) can1 423#FFFFFFFF20000000
(1591150609.668556) can1 425#900000C00000B1C0
(1591150609.669579) can1 426#AA00000000008800
(1591150609.715430) can1 426#AA00000000008800
(1591150609.728284) can1 53B#411200
(1591150609.731525) can1 399#0000000000000000
(1591150609.736773) can1 124#0202000000000000
(1591150609.737628) can1 35E#8000000000000000
(1591150609.738659) can1 3E7#0000000000000000
(1591150609.739619) can1 41A#00009860B8067590
(1591150609.764555) can1 3B0#0D00000000000000
(1591150609.765551) can1 3BC#0000207F6A00A500
(1591150609.766570) can1 423#FFFFFFFF20000000
(1591150609.767584) can1 425#900000C00000B1C0
(1591150609.768608) can1 426#AA00000000008800
(1591150609.769220) can1 50C#2F0400
(1591150609.814559) can1 000#
(1591150609.814589) can1 426#AA00000000008800
(1591150609.822829) can1 125#0202000000000000
(1591150609.824456) can1 541#011200
(1591150609.828177) can1 50C#0C0100
(1591150609.864525) can1 3B0#0D00000000000000
(1591150609.865506) can1 3BC#0000207F6A00A500
(1591150609.866497) can1 40A#C00000B527592700
(1591150609.867520) can1 423#FFFFFFFF20000000
(1591150609.868535) can1 425#900000C00000B1C0
(1591150609.869558) can1 426#AA00000000008800
(1591150609.914453) can1 426#AA00000000008800
(1591150609.915522) can1 501#0302000000000000
(1591150609.964560) can1 3B0#0D00000000000000
(1591150609.965553) can1 3BC#0000207F6A00A500
(1591150609.966592) can1 423#FFFFFFFF20000000
(1591150609.967605) can1 425#900000C00000B1C0
(1591150609.968679) can1 426#AA00000000008800
(1591150610.008442) can1 503#0B1200
(1591150610.014470) can1 426#AA00000000008800
(1591150610.064519) can1 3B0#0D00000000000000
(1591150610.065563) can1 3BC#0000207F6A00A500
(1591150610.066531) can1 40A#C100314654385733
(1591150610.067540) can1 423#FFFFFFFF20000000
(1591150610.068604) can1 425#900000C00000B1C0
(1591150610.069591) can1 426#AA00000000008800
(1591150610.114674) can1 426#AA00000000008800
(1591150610.164590) can1 3B0#0D00000000000000
(1591150610.165572) can1 3BC#0000207F6A00A500
(1591150610.166603) can1 423#FFFFFFFF20000000
(1591150610.167707) can1 040#
(1591150610.167729) can1 425#900000C00000B1C0
(1591150610.168728) can1 000#
(1591150610.168749) can1 426#R8
(1591150610.188195) can1 50C#010200
(1591150610.191214) can1 527#3B1100
(1591150610.204422) can1 541#011100
(1591150610.207977) can1 000#
(1591150610.208000) can1 53B#411100
(1591150610.214663) can1 426#AA00000000008A00
(1591150610.264687) can1 3B0#0D00000000000000
(1591150610.265685) can1 3BC#0000207F6A00A500
(1591150610.266661) can1 40A#C101425434424542
(1591150610.267667) can1 423#FFFFFFFF20000000
(1591150610.268682) can1 425#900000C00000B1C0
(1591150610.269705) can1 426#AA00000000008800
(1591150610.275346) can1 501#0302000000000000
(1591150610.314503) can1 426#AA00000000008800
(1591150610.364646) can1 3B0#0D00000000000000
(1591150610.365674) can1 3BC#0000207F6A00A500
(1591150610.367828) can1 423#FFFFFFFF20000000
(1591150610.368712) can1 425#900000C00000B1C0
(1591150610.369737) can1 426#AA00000000008800
(1591150610.371359) can1 503#0B1200F7000088
(1591150610.414573) can1 426#AA00000000008800
(1591150610.464768) can1 000#
(1591150610.464791) can1 083#000FFF7400007EC9
(1591150610.465530) can1 385#00EA02F219000000
(1591150610.466553) can1 3B0#0D00000000000000
(1591150610.467590) can1 3BC#0000207F6A00A600
(1591150610.468634) can1 3E0#0000000083C00000
(1591150610.469664) can1 3E2#000000000000804B
(1591150610.470639) can1 40A#C102343033323600
(1591150610.471663) can1 423#FFFFFFFF20000000
(1591150610.472678) can1 425#900000C00000B1C0
(1591150610.473786) can1 000#
(1591150610.473809) can1 426#AA00000000008800
(1591150610.474742) can1 10D#0000080000000000
(1591150610.475802) can1 42C#0000000000000000
(1591150610.484757) can1 3A0#1100800289240000
(1591150610.495102) can1 3B2#000000730000FE80
(1591150610.504931) can1 3B3#0043050000000000
(1591150610.514481) can1 3C3#0000010001410B00
(1591150610.515505) can1 426#AA00000000008808
(1591150610.534623) can1 3C6#0000000000000000
(1591150610.564701) can1 000#
(1591150610.564730) can1 3B0#0D00000000000000
(1591150610.565580) can1 3BC#0000207F6A00A600
(1591150610.566630) can1 423#FFFFFFFF20000000
(1591150610.567633) can1 425#900000C00000B1C0
(1591150610.568652) can1 426#AA00000000008800
(1591150610.614451) can1 426#AA00000000008800
(1591150610.622748) can1 3EB#801E7080805000
(1591150610.633311) can1 503#030100
(1591150610.635303) can1 501#0101000000000000
(1591150610.641262) can1 527#270100
(1591150610.644326) can1 541#410100
(1591150610.647961) can1 53B#3B0100
(1591150610.648552) can1 50C#0C0100
(1591150610.664501) can1 3B0#0D00000000000000
(1591150610.665426) can1 3BC#0000207F6A00A600
(1591150610.666416) can1 40A#C10401630A461101
(1591150610.667439) can1 423#FFFFFFFF20000000
(1591150610.668454) can1 425#900000C00000B1C0
(1591150610.669478) can1 426#AA00000000008800
(1591150610.715274) can1 426#AA00000000008800
(1591150610.734131) can1 503#0B1200
(1591150610.744496) can1 124#0202008000000000
(1591150610.745502) can1 35E#8000000000000000
(1591150610.746536) can1 3E7#0000000000000000
(1591150610.747492) can1 41A#00009860B8067590
(1591150610.764565) can1 3B0#0D00000000000000
(1591150610.765571) can1 3BC#0000207F6A00A600
(1591150610.766594) can1 423#FFFFFFFF20000000
(1591150610.767609) can1 425#900000C00000B1C0
(1591150610.767701) can1 000#
(1591150610.768632) can1 426#AA00000000008800
(1591150610.769236) can1 50C#3B0400
(1591150610.814411) can1 426#AA00000000008800
(1591150610.835385) can1 000#
(1591150610.835396) can1 501#0301000000080000
(1591150610.844455) can1 000#
(1591150610.844465) can1 541#011100
(1591150610.845825) can1 125#0202000000000000
(1591150610.846456) can1 527#3B1100
(1591150610.848115) can1 50C#0C0100
(1591150610.848707) can1 53B#411100
(1591150610.864502) can1 3B0#0D00000000000000
(1591150610.865562) can1 3BC#0000207F6A00A600
(1591150610.866553) can1 40A#C110090822450000
(1591150610.867576) can1 423#FFFFFFFF20000000
(1591150610.868585) can1 425#900000C00000B1C0
(1591150610.869614) can1 426#AA00000000008800
(1591150610.914424) can1 426#AA00000000008800
(1591150610.915554) can1 503#0B1200
(1591150610.964477) can1 3B0#0D00000000000000
(1591150610.965483) can1 3BC#0000207F6A00A600
(1591150610.966518) can1 423#FFFFFFFF20000000
(1591150610.967521) can1 425#900000C00000B1C0
(1591150610.968544) can1 426#AA00000000008800
(1591150611.014519) can1 426#AA00000000008800
(1591150611.064490) can1 3B0#0D00000000000000
(1591150611.065454) can1 3BC#0000207F6A00A600
(1591150611.066437) can1 40A#C00000B527593300
(1591150611.067460) can1 423#FFFFFFFF20000000
(1591150611.068475) can1 425#900000C00000B1C0
(1591150611.069498) can1 426#AA00000000008800
(1591150611.108101) can1 50C#3B0200
(1591150611.111867) can1 527#3B1100
(1591150611.114499) can1 426#AA00000000008800
(1591150611.164541) can1 3B0#0D00000000000000
(1591150611.165559) can1 3BC#0000207F6A00A600
(1591150611.166570) can1 423#FFFFFFFF20000000
(1591150611.167585) can1 425#900000C00000B1C0
(1591150611.168608) can1 426#AA00000000008800
(1591150611.208099) can1 53B#411200
(1591150611.214589) can1 426#R8
(1591150611.264482) can1 3B0#0D00000000000000
(1591150611.265542) can1 3BC#0000207F6A00A600
(1591150611.266517) can1 40A#C100314654385733
(1591150611.267540) can1 423#FFFFFFFF20000000
(1591150611.268555) can1 425#900000C00000B1C0
(1591150611.269578) can1 426#AA01000000008800
(1591150611.304421) can1 541#011200
(1591150611.314556) can1 426#AA00000040008800
(1591150611.364614) can1 3B0#0D00000000000000
(1591150611.365620) can1 3BC#0000207F6A00A600
(1591150611.366644) can1 423#FFFFFFFF20000000
(1591150611.367658) can1 425#900000C00000B1C0
(1591150611.368680) can1 426#AA00000000008800
(1591150611.395484) can1 501#0302000000000000
(1591150611.414603) can1 436#AA00000000008800
(1591150611.464577) can1 083#000FFF7400007EC9
(1591150611.465559) can1 385#00EA02F219000000
(1591150611.467563) can1 3BC#0000207F6A00A700
(1591150611.468611) can1 3E0#0000000083C00000
(1591150611.469642) can1 3E2#020000000000804B
(1591150611.470601) can1 40A#C101425434424542
(1591150611.471630) can1 423#FFFFFFFF20000000
(1591150611.472640) can1 425#900000C00000B1C0
(1591150611.473679) can1 426#AA00000000008800
(1591150611.474700) can1 10D#0000000000000000
(1591150611.475742) can1 42C#0000000000000004
(1591150611.480108) can1 503#0B1200
(1591150611.484773) can1 3A0#1100800289240000
(1591150611.494634) can1 000#
(1591150611.494658) can1 3B2#000000730000FE00
(1591150611.504953) can1 3B3#0043050000000000
(1591150611.514547) can1 3C3#0000010001410B00
(1591150611.515568) can1 426#AA00000000008800
(1591150611.520394) can1 000#
(1591150611.525661) can1 3C4#0034940000C0A4B0
(1591150611.534844) can1 3C6#0000000000000000
(1591150611.544705) can1 3D0#1C41000000000000
(1591150611.564737) can1 3B0#0D00000000000000
(1591150611.565731) can1 3BC#0000207F6A00A700
(1591150611.566771) can1 423#FFFFFFFF20000000
(1591150611.567785) can1 425#900000C00000B1C0
(1591150611.568808) can1 426#AA00000000008800
(1591150611.614701) can1 426#AA00000000008800
(1591150611.622776) can1 3EB#801E7080805000
(1591150611.664599) can1 3B0#0D00000000000000
(1591150611.665645) can1 3BC#0000207F6A00A700
(1591150611.666619) can1 40A#C102343033323600
(1591150611.667642) can1 423#FFFFFFFF20000000
(1591150611.668656) can1 425#900000C00000B1C0
(1591150611.669248) can1 50C#270200
(1591150611.670228) can1 426#AA10000000008800
(1591150611.715476) can1 426#AA00000000008800
(1591150611.718717) can1 399#0000000000000000
(1591150611.752700) can1 124#0202000000000000
(1591150611.753625) can1 35E#8000000000000000
(1591150611.754702) can1 3E7#0000000000000000
(1591150611.755693) can1 41A#00009860B8067590
(1591150611.764635) can1 3B0#0D00000000000000
(1591150611.765663) can1 3BC#0000207F6A00A700
(1591150611.766657) can1 423#FFFFFFFF20000000
(1591150611.767263) can1 527#3B1200
(1591150611.768230) can1 425#900000C00000B1C0
(1591150611.768829) can1 50C#270400
(1591150611.769807) can1 426#AA00000000008800
(1591150611.788233) can1 50C#0C0100
(1591150611.814698) can1 000#
(1591150611.814719) can1 426#AA00000000008800
(1591150611.848543) can1 53B#411200
(1591150611.864636) can1 3B0#0D00000000000000
(1591150611.865609) can1 3BC#0000207F6A00A700
(1591150611.866606) can1 40A#C10401630A461101
(1591150611.867630) can1 423#FFFFFFFF20000000
(1591150611.868645) can1 425#900000C00000B1C0
(1591150611.870599) can1 426#AA00000000008800
(1591150611.914629) can1 426#AA00000000008800
(1591150611.944441) can1 541#011200
(1591150611.964730) can1 000#
(1591150611.964752) can1 3B0#0D00000000000000
(1591150611.965646) can1 3BC#0000207F6A00A700
(1591150611.966669) can1 423#FFFFFFFF20000000
(1591150611.967719) can1 425#900000C08000B1C0
(1591150611.968712) can1 426#AA00000000008800
(1591150612.014603) can1 426#AA00000000008800
(1591150612.035511) can1 501#0302000000000000
(1591150612.064623) can1 3B0#0D00000000000000
(1591150612.065618) can1 3BC#0000207F6A00A700
(1591150612.066609) can1 40A#C110090822450000
(1591150612.067636) can1 423#FFFFFFFF20000000
(1591150612.068651) can1 425#900000C00000B1C0
(1591150612.069726) can1 426#AA00000000008800
(1591150612.114616) can1 426#AA00000000008800
(1591150612.125181) can1 503#0B1200
(1591150612.164716) can1 3B0#0D00000000000000
(1591150612.165676) can1 3BC#0000207F6A00A700
(1591150612.166699) can1 423#FFFFFFFF20000000
(1591150612.167713) can1 425#900000C00000B1C0
(1591150612.168772) can1 426#AA00000000008800
(1591150612.215125) can1 426#R8
(1591150612.264661) can1 3B0#0D00000000000000
(1591150612.265655) can1 3BC#0000207F6A00A700
(1591150612.266644) can1 40A#C00000B527593F00
(1591150612.267698) can1 423#FFFFFFFF20000000
(1591150612.268682) can1 425#900000C00000B1C0
(1591150612.269706) can1 426#AA00000000008800
(1591150612.308254) can1 50C#3B0200
(1591150612.314717) can1 426#AA00000000008800
(1591150612.319257) can1 527#3B1100
(1591150612.364753) can1 3B0#0D00000000000000
(1591150612.365755) can1 3BC#0000A07F6A00A700
(1591150612.366775) can1 423#FFFFFFFF20000000
(1591150612.367790) can1 425#900000C00000B1C0
(1591150612.368844) can1 426#AA00000000008800
(1591150612.405446) can1 3E2#000000000004804C
(1591150612.408549) can1 53B#411200
(1591150612.414695) can1 426#AA00000000008800
(1591150612.464626) can1 083#000FFF7400007EC9
(1591150612.465563) can1 385#00EA02F219000000
(1591150612.466591) can1 3B0#0D00000000000000
(1591150612.467611) can1 3BC#0000207F6A00A700
(1591150612.468660) can1 3E0#0000000083C00000
(1591150612.469690) can1 3E2#000000000004804C
(1591150612.470666) can1 40A#C100314654385733
(1591150612.471688) can1 423#FFFFFFFF20000000
(1591150612.472703) can1 425#900000C00000B1C0
(1591150612.473726) can1 426#AA00001000008800
(1591150612.474752) can1 10D#0000000000000000
(1591150612.475846) can1 42C#0000000000000000
(1591150612.484864) can1 3A0#1100800A89240000
(1591150612.494706) can1 3B2#000000730000FE00
(1591150612.504596) can1 541#011200
(1591150612.505492) can1 3B3#0043050000000000
(1591150612.514601) can1 3C3#0000010001410B00
(1591150612.515629) can1 426#AA00400000008800
(1591150612.524666) can1 3E4#0034940000C0A4B0
(1591150612.544878) can1 3D0#1C41000000000000
(1591150612.564767) can1 3B0#0D00000000000000
(1591150612.565760) can1 3BC#0000207F6A00A700
(1591150612.566781) can1 3E2#000000000004804D
(1591150612.567806) can1 423#FFFFFFFF20000000
(1591150612.568821) can1 425#900000C00000B1C0
(1591150612.569843) can1 426#AA00000000008800
(1591150612.595693) can1 501#0302000000000000
(1591150612.614808) can1 426#AA00000000008800
(1591150612.622795) can1 3EB#801E7080805000
(1591150612.664689) can1 3B0#0D00000000000000
(1591150612.665684) can1 3BC#0000207F6A00A700
(1591150612.667675) can1 423#FFFFFFFF20000000
(1591150612.668692) can1 425#900000C00004B1C0
(1591150612.669715) can1 426#AA00000000008800
(1591150612.689649) can1 503#0B1200
(1591150612.715457) can1 426#AA00000000008800
(1591150612.732276) can1 399#0000000000000000
(1591150612.760710) can1 124#0202000000000000
(1591150612.761587) can1 35E#8000000000008000
(1591150612.762677) can1 3E7##00000000000000000
(1591150612.763664) can1 41A#00009860B8067590
(1591150612.764851) can1 3B0#0D00000000000000
(1591150612.765843) can1 3BC#0000207F6A00A700
(1591150612.766889) can1 423#FFFFFFFF20000000
(1591150612.767904) can1 425#900000C00000B1C0
(1591150612.768926) can1 426#AA00000000008800
(1591150612.769506) can1 50C#270400
(1591150612.784668) can1 561#011100
(1591150612.788299) can1 50C#0C0100
(1591150612.788889) can1 53B#411100
(1591150612.789903) can1 527#3B1100
(1591150612.795648) can1 501#0301000000000000
(1591150612.864643) can1 083#000FFF5400007EC9
(1591150612.865629) can1 3B0#0D00000000000000
(1591150612.866626) can1 3BC#0000207F6A00A700
(1591150612.867601) can1 40A#C102343033323600
(1591150612.868624) can1 423#FFFFFFFF20000000
(1591150612.869639) can1 425#900000C00000B1C0
(1591150612.870662) can1 426#AA00000000008800
(1591150612.871261) can1 503#0B1200
(1591150612.891928) can1 125#0202000000000000
(1591150612.894025) can1 000#
(1591150612.914635) can1 426#AA00000000008800
(1591150612.964805) can1 3B0#0D00000000000000
(1591150612.965741) can1 3BC#0000207F6A00A700
(1591150612.966765) can1 423#FFFFFFFF20000000
(1591150612.967780) can1 425#900000C00000B1C0
(1591150612.968803) can1 426#AA00000000008800
(1591150612.974508) can1 083#000FFF7400007EC9
(1591150613.014665) can1 426#AA00000000008800
(1591150613.048164) can1 50C#270200
(1591150613.064700) can1 3B0#0D00000000000000
(1591150613.065698) can1 3BC#0000207F6A20A700
(1591150613.066689) can1 40A#C10401630A461101
(1591150613.067712) can1 423#FFFFFFFF20000000
(1591150613.068727) can1 425#900000C00000B1E0
(1591150613.069751) can1 426#AA00000000008800
(1591150613.114619) can1 426#AA00000000008800
(1591150613.137539) can1 527#3B1200
(1591150613.164667) can1 3B0#0D00000000000000
(1591150613.165667) can1 3BC#0000207F6A00A700
(1591150613.166690) can1 423#FFFFFFFF20000000
(1591150613.167705) can1 425#900000C00000B1C0
(1591150613.168728) can1 426#AA00000000008800
(1591150613.214740) can1 426#AA00000000008800
(1591150613.228930) can1 53B#411200
(1591150613.264651) can1 3B0#0D00000000000000
(1591150613.265684) can1 000#
(1591150613.265693) can1 3BC#0000207F6A00A700
(1591150613.266640) can1 40A#C110090822450000
(1591150613.267676) can1 423#FFFFFFFF20000000
(1591150613.268679) can1 425#900000C00000B1C0
(1591150613.269702) can1 426#AA00000000008800
(1591150613.314577) can1 426#AA00000000008800
(1591150613.324363) can1 541#011200
(1591150613.364712) can1 3B0#0D00000000000000
(1591150613.365711) can1 3BC#0000207F6A00A700
(1591150613.366734) can1 423#FFFFFFFF20400000
(1591150613.367762) can1 425#900000C00000B1C0
(1591150613.368772) can1 426#AA00000800008800
(1591150613.414660) can1 426#AA00000000008800
(1591150613.415720) can1 000#
(1591150613.415728) can1 501#0302000000000000
(1591150613.464798) can1 083#000FFF7400007EC9
(1591150613.465765) can1 385#00EA02F219000000
(1591150613.466796) can1 3B0#0D00000000000000
(1591150613.467803) can1 3BC#0000207F6A00A800
(1591150613.468864) can1 3E0#0000000083C00000
(1591150613.469885) can1 3E2#000000000004804D
(1591150613.470856) can1 40A#C00000B527594B00
(1591150613.471879) can1 423#FFFFFFFF20000000
(1591150613.472909) can1 425#900000C00000B1C0
(1591150613.473919) can1 426#AA00000000008800
(1591150613.474932) can1 10D#0000000000000000
(1591150613.475995) can1 42C#0000000000000000
(1591150613.484931) can1 3A0#1100800289240000
(1591150613.494651) can1 3B2#020000730000FE00
(1591150613.505020) can1 3B3#0043050000000000
(1591150613.524964) can1 3C4#0034940000C0A4B0
(1591150613.534783) can1 3C6#0000000000000000
(1591150613.544807) can1 3D0#1C41000000000000
(1591150613.564844) can1 3B0#0D00000000000000
(1591150613.565850) can1 3BC#0000207F6A00A800
(1591150613.566904) can1 423#FFFFFFFF20000000
(1591150613.567889) can1 425#900000C00000B1C0
(1591150613.568911) can1 426#AA00000004008800
(1591150613.615074) can1 426#AA00000000008800
(1591150613.622868) can1 3EB#801E7080805000
(1591150613.664801) can1 3B0#0D00000000000000
(1591150613.665821) can1 3BC#0000207F6A00A800
(1591150613.666778) can1 40A#C100314654385733
(1591150613.667799) can1 423#R8
(1591150613.668814) can1 425#900000C00000B1C0
(1591150613.669841) can1 426#AA00000000008800
(1591150613.688301) can1 50C#270200
(1591150613.715559) can1 426#AA00000000008800
(1591150613.718850) can1 399#0000000000000000
(1591150613.728910) can1 399#0000000000000000
(1591150613.732233) can1 399#0000000000000000
(1591150613.764994) can1 3B0#8D00000000000000
(1591150613.765902) can1 3BC#0000207F6A00A800
(1591150613.766942) can1 423#FFFFFFFF20000000
(1591150613.767973) can1 425#900000C00000B1C0
(1591150613.768957) can1 124#0202000000000000
(1591150613.769931) can1 426#AA00000000008800
(1591150613.770915) can1 35E#8000000000000000
(1591150613.771515) can1 50C#270400
(1591150613.772521) can1 3E7#0000000000000000
(1591150613.773128) can1 527#3B1200
(1591150613.774064) can1 41A#00009860B8067590
(1591150613.788336) can1 50C#0C8100
(1591150613.814771) can1 426#AA00000000008800
(1591150613.864781) can1 3B0#0D00000000000000
(1591150613.865781) can1 3BC#0000207F6A00A800
(1591150613.866746) can1 40A#C101425434424542
(1591150613.867769) can1 423#FFFFFFFF20000000
(1591150613.868784) can1 425#900000C00000B1C0
(1591150613.869382) can1 53B#411200
(1591150613.870353) can1 426#AA00000000008800
(1591150613.914775) can1 426#AA00000000008800
(1591150613.915705) can1 125#0202000000000000
(1591150613.964788) can1 3B0#0D00000000000000
(1591150613.965386) can1 541#011200
(1591150613.966362) can1 3BC#0000207F6A00A800
(1591150613.967384) can1 423#FFFFFFFF20000000
(1591150613.968400) can1 425#900000C00000B1C0
(1591150613.969419) can1 426#AA00000000008800
(1591150614.014785) can1 426#AA00000000008800
(1591150614.055509) can1 501#0302000000000000
(1591150614.064801) can1 3B0#0D00000000000000
(1591150614.065766) can1 3BC#0000207F6A00A800
(1591150614.066750) can1 40A#C102343033323600
(1591150614.068942) can1 423#FFFFFFFF20000000
(1591150614.069821) can1 425#900000C00000B1C0
(1591150614.070845) can1 426#AA00000000008800
(1591150614.114763) can1 426#AA00000000008800
(1591150614.141125) can1 503#0B1200
(1591150614.165040) can1 3B0#0D00000000000000
(1591150614.166045) can1 3BC#0000207F6A00A800
(1591150614.167119) can1 423#FFFFFFFF20000000
(1591150614.168078) can1 425#900000C00000B1C0
(1591150614.169102) can1 426#AA00000000008800
(1591150614.214947) can1 426#AA00000000008800
(1591150614.265045) can1 3B0#0D00000000000000
(1591150614.265877) can1 3BC#0000207F6A00A800
(1591150614.266867) can1 40A#C10401630A461101
(1591150614.268039) can1 423#FFFFFFFF20000000
(1591150614.268904) can1 425#900000C00000B1C0
(1591150614.269927) can1 426#AA00000000008800
(1591150614.314832) can1 426#AA00000000008800
(1591150614.328332) can1 50C#3B0200
(1591150614.344893) can1 527#3B1100
(1591150614.364868) can1 3B0#0D00000000000000
(1591150614.365875) can1 3BC#0000207F6A00A800
(1591150614.366900) can1 423#FFFFFFFF20000000
(1591150614.367915) can1 425#900000C00002B1C0
(1591150614.368938) can1 426#AA00200000008800
(1591150614.409546) can1 53B#411200
(1591150614.414769) can1 426#AA00000000008800
(1591150614.464763) can1 083#000FFF7400007EC9
(1591150614.465779) can1 10D#0000000000000000
(1591150614.466738) can1 385#00EA02F219000000
(1591150614.467768) can1 3B0#0D00000000000000
(1591150614.468766) can1 3BC#0000207F6A00A900
(1591150614.469790) can1 3D0#1C41000000000000
(1591150614.470836) can1 3E0#0000000083C00000
(1591150614.471859) can1 3E2#000000000004804D
(1591150614.472850) can1 40A#C110090822450000
(1591150614.473912) can1 423#FFFFFFFF20000000
(1591150614.474905) can1 425#900000C00000B1C0
(1591150614.476013) can1 000#
(1591150614.476034) can1 426#AA00000000008800
(1591150614.477021) can1 42C#0000000000000000
(1591150614.485008) can1 3A0#1100800289240000
(1591150614.494718) can1 10D#0000000000000000
(1591150614.495725) can1 3B2#000000730000FE00
(1591150614.504581) can1 541#011200
(1591150614.505523) can1 3B3#0043050000000000
(1591150614.514821) can1 3C3#0000010001410B00
(1591150614.515804) can1 426#AA00000000008800
(1591150614.524896) can1 000#
(1591150614.524921) can1 3C4#0034940000C0A4B0
(1591150614.534797) can1 3C6#8000000000000000
(1591150614.544853) can1 3D0#1C41000000000000
(1591150614.564868) can1 3B0#0D00000000000000
(1591150614.565869) can1 3BC#0000207F6A00A900
(1591150614.566891) can1 423#FFFFFFFF20000000
(1591150614.567907) can1 425#900000C00000B1C0
(1591150614.568929) can1 426#AA00000000008800
(1591150614.595569) can1 501#0302000000000000
(1591150614.614792) can1 426#AA20000000008800
(1591150614.622873) can1 3EB#801E7080805000
(1591150614.664892) can1 3B0#0D00000000000000
(1591150614.665921) can1 3BC#0000207F6A00A900
(1591150614.666912) can1 40A#C00000B527595700
(1591150614.667905) can1 423#FFFFFFFF20000000
(1591150614.668919) can1 425#900000C00000B1C0
(1591150614.669947) can1 426#AA00000000008800
(1591150614.685438) can1 503#0B1200
(1591150614.715597) can1 426#AA00000000008800
(1591150614.716466) can1 399#0000000000000000
(1591150614.727795) can1 399#0000000000000000
(1591150614.765040) can1 3B0#0D00000000000004
(1591150614.766028) can1 000#
(1591150614.766050) can1 3BC#0000207F6A00A900
(1591150614.767066) can1 000#
(1591150614.767088) can1 423#FFFFFFFF20000000
(1591150614.768012) can1 425#900000C00000B1C0
(1591150614.769050) can1 426#AA00000000008800
(1591150614.769639) can1 50C#271400
(1591150614.777076) can1 124#0202000000000000
(1591150614.778743) can1 35E#8000000000000000
(1591150614.780292) can1 3E7#0000000000000000
(1591150614.781812) can1 53B#3B0100
(1591150614.782143) can1 41A#00009860B8067590
(1591150614.788539) can1 50C#0C0100
(1591150614.814803) can1 426#AA00000000008800
(1591150614.864845) can1 3B0#0D00000000000000
(1591150614.865808) can1 3BC#R8
(1591150614.866868) can1 40A#C100314654385733
(1591150614.867806) can1 423#FFFFFFFF20000000
(1591150614.868823) can1 425#900000C00000B1C0
(1591150614.869874) can1 426#AA00000000008800
(1591150614.888350) can1 50C#0C0200
(1591150614.914794) can1 426#EA00000000008800
(1591150614.938195) can1 125#0202000000000000
(1591150614.964861) can1 3B0#0D00000000000000
(1591150614.965859) can1 3BC#0000207F6A00A900
(1591150614.966883) can1 423#FFFFFFFF20000000
(1591150614.967898) can1 425#900000C00000B1C0
(1591150614.968921) can1 426#AA00000000008800
(1591150614.969687) can1 53B#411200
(1591150615.014876) can1 426#AA00000000008800
(1591150615.064876) can1 3B0#0D00000000000000
(1591150615.065481) can1 541#011200
(1591150615.066444) can1 3BC#0000207F6A00A900
(1591150615.067402) can1 40A#C101425434424542
(1591150615.068425) can1 423#FFFFFFFF20000000
(1591150615.069440) can1 425#900000C00000B1C0
(1591150615.070463) can1 426#AA00000000008800
(1591150615.114806) can1 426#AA00000000008800
(1591150615.155684) can1 501#0302000000000000
(1591150615.164913) can1 3B0#0D00000000000000
(1591150615.165882) can1 3BC#0000207F6A00A900
(1591150615.166913) can1 423#FFFFFFFF20000000
(1591150615.167928) can1 425#900000C00000B1C0
(1591150615.168951) can1 426#AA00000000008C00
(1591150615.214962) can1 426#AA00000000008800
(1591150615.249898) can1 503#0B1200
(1591150615.264867) can1 3B0#0D00000000000000
(1591150615.265834) can1 3BC#0000207F6A00A900
(1591150615.266824) can1 40A#C102343033323600
(1591150615.267848) can1 423#FFFFFFFF20000000
(1591150615.268863) can1 425#900000C00000B1C0
(1591150615.269885) can1 426#AA00000000008800
(1591150615.314835) can1 426#AA00000000108800
(1591150615.364899) can1 3B0#0D00000000000000
(1591150615.365905) can1 3BC#0000207F6A00A900
(1591150615.366925) can1 423#FFFFFFFF20000000
(1591150615.367941) can1 425#900000C00000B1C0
(1591150615.369014) can1 426#AA00000000008800
(1591150615.415040) can1 426#AA02000000008800
(1591150615.464951) can1 083#000FFF7400007EC9
(1591150615.465909) can1 385#00EA02F219000000
(1591150615.467029) can1 3B0#0D00000000000000
(1591150615.467936) can1 3BC#0000207F6A00AA00
(1591150615.468982) can1 3E0#0000000083C00000
(1591150615.470005) can1 3E2#000000000004804D
(1591150615.470996) can1 40A#C10401630A461101
(1591150615.472019) can1 423#FFFFFFFF20000000
(1591150615.473034) can1 425#900000C00000B1C0
(1591150615.474057) can1 426#AA00000000008800
(1591150615.475078) can1 10D#0000000000000000
(1591150615.476186) can1 42C#0000000000000000
(1591150615.485099) can1 3A0#1100800289240000
(1591150615.494803) can1 3B2#000000730000FE00
(1591150615.505369) can1 3B3#0043050000000000
(1591150615.512026) can1 503#030100
(1591150615.514836) can1 3C3#0000010001410B00
(1591150615.515872) can1 426#AA00000000008800
(1591150615.517004) can1 000#
(1591150615.517026) can1 501#0101000000000000
(1591150615.524874) can1 3C4#0034940000C0A4B0
(1591150615.525486) can1 541#410100
(1591150615.528669) can1 50C#0C0100
(1591150615.530155) can1 53B#3B0100
(1591150615.531667) can1 527#270100
(1591150615.535083) can1 3C6#0000000000000000
(1591150615.544969) can1 3D0#1C41000000000000
(1591150615.564893) can1 3B0#0D00800000000000
(1591150615.565889) can1 3BC#0000207F6A00AA00
(1591150615.566911) can1 423#FFFFFFFF20000000
(1591150615.567926) can1 425#900000D00000B1C0
(1591150615.568950) can1 426#AA00000000008800
(1591150615.612776) can1 503#0B1200
(1591150615.614882) can1 426#AA00002000008900
(1591150615.622871) can1 3EB#801E7080805000
(1591150615.664861) can1 3B0#0D00000000000000
(1591150615.665856) can1 3BC#0000207F6A00AA00
(1591150615.666861) can1 40A#C110090822450000
(1591150615.667883) can1 423#FFFFFFFF20000000
(1591150615.668984) can1 000#
(1591150615.669006) can1 425#900000C00000B1C0
(1591150615.669926) can1 426#AA00000000008800
(1591150615.715636) can1 426#AA00000000008800
(1591150615.720027) can1 399#0000000000000000
(1591150615.724008) can1 399#0000000000000000
(1591150615.732892) can1 39A#000000FE00000000
(1591150615.736308) can1 39A#000000FE00000000
(1591150615.765024) can1 3B0#0D00000000000000
(1591150615.765926) can1 3BC#0000207F6A00AA00
(1591150615.766967) can1 423#FFFFFFFF20000000
(1591150615.767997) can1 425#900000C00000B1C0
(1591150615.769037) can1 426#AA00000000008800
(1591150615.769637) can1 50C#271400
(1591150615.784471) can1 124#0202000000000000
(1591150615.785501) can1 35E#8000000000000000
(1591150615.786502) can1 3E7#0000000000000000
(1591150615.787460) can1 41A#00009860B8067590
(1591150615.814901) can1 426#AA00000000008800
(1591150615.818092) can1 527#031200
(1591150615.824580) can1 541#031100
(1591150615.828414) can1 50C#0C0100
(1591150615.830100) can1 53B#411100
(1591150615.835693) can1 501#0301000000000000
(1591150615.864937) can1 3B0#0D00000000000000
(1591150615.865881) can1 3BC#0000207F6A00AA00
(1591150615.866871) can1 40A#C00000B527596300
(1591150615.867894) can1 423#FFFFFFFF20000000
(1591150615.868940) can1 425#900000C00000B1C0
(1591150615.869932) can1 426#AA00000000008800
(1591150615.914872) can1 4A6#AA00000000008800
(1591150615.915462) can1 503#0B1200
(1591150615.961357) can1 000#
(1591150615.961379) can1 125#0202000000000000
(1591150615.964924) can1 3B0#0D00000000000000
(1591150615.965922) can1 3BC#0000207F6A00AA00
(1591150615.966945) can1 423#FFFFFFFF20000000
(1591150615.967960) can1 425#900000C00000B1C0
(1591150615.968983) can1 426#AA00000000008800
(1591150616.014996) can1 426#AA00000000008800
(1591150616.064926) can1 3B0#0D00008000000000
(1591150616.065909) can1 3BC#0000207F6A00AA00
(1591150616.066875) can1 40A#C100314654385733
(1591150616.067907) can1 423#FFFFFFFF20000000
(1591150616.068922) can1 425#900000C00000B1C0
(1591150616.069945) can1 426#AA00000000008800
(1591150616.108396) can1 50C#3B1200
(1591150616.115058) can1 426#AA00000000008800
(1591150616.125084) can1 527#3B1100
(1591150616.164953) can1 3B0#0D00000000000000
(1591150616.165953) can1 3BC#0010207F6A00AA00
(1591150616.166976) can1 423#FFFFFFFF20000000
(1591150616.167992) can1 425#900000C00000B1C0
(1591150616.169014) can1 426#AA00000000008800
(1591150616.190426) can1 53B#411200
(1591150616.215226) can1 426#AA00000000008800
(1591150616.264985) can1 3B0#0D00000000400000
(1591150616.265976) can1 3BC#0000207F6A00AA00
(1591150616.266942) can1 40A#C101425434424542
(1591150616.267965) can1 423#FFFFFFFF20000000
(1591150616.268981) can1 425#900000C00000B1C0
(1591150616.270003) can1 426#AA00000000008800
(1591150616.284511) can1 541#011200
(1591150616.314939) can1 426#AA00000000008800
(1591150616.364952) can1 3B0#0D00000000000000
(1591150616.365951) can1 3BC#0000207F6A00AA00
(1591150616.366973) can1 423#FFFFFFFF20000000
(1591150616.367989) can1 425#900000C00000B1C0
(1591150616.369012) can1 426#AA00000000008800
(1591150616.375642) can1 501#0302000000000000
(1591150616.414931) can1 426#AA00000000008800
(1591150616.459459) can1 503#0B1200
(1591150616.464851) can1 083#000FFF7400007EC9
(1591150616.465809) can1 385#00EA02F219000000
(1591150616.466851) can1 3B0#0D00000000000000
(1591150616.467850) can1 3BC#0000207F6A00AA00
(1591150616.468897) can1 3E0#0000000083C00000
(1591150616.469920) can1 3E2#000000000004804D
(1591150616.470895) can1 40A#C102343033323600
(1591150616.471918) can1 423#FFFFFFFF20000000
(1591150616.472933) can1 425#900000C00000B1C0
(1591150616.473998) can1 426#AA00000000048800
(1591150616.474995) can1 10D#0000000000000000
(1591150616.476058) can1 42C#0000000000000000
(1591150616.485103) can1 3A0#1100800289240000
(1591150616.494941) can1 3B2#000000730000FE00
(1591150616.505531) can1 3B3#0043050000000000
(1591150616.514866) can1 3C3#0000010001410B00
(1591150616.515892) can1 426#AA00000000008800
(1591150616.524937) can1 3C4#0034940000C0A4B0
(1591150616.534921) can1 3C6#0000000000000000
(1591150616.544928) can1 3D0#1C41000000000000
(1591150616.565141) can1 3B0#0D00000000000000
(1591150616.565973) can1 3BC#0000207F6A00AA00
(1591150616.566995) can1 423#FFFFFFFF20000000
(1591150616.568010) can1 425#900000C00000B1C0
(1591150616.569118) can1 000#
(1591150616.569140) can1 426#AA00000000008800
(1591150616.615015) can1 426#AA00010000008800
(1591150616.622934) can1 3EB#801E7080805000
(1591150616.628724) can1 50C#271200
(1591150616.664934) can1 3B0#0D00000000000000
(1591150616.665931) can1 3BC#0000207F6A00AA00
(1591150616.666923) can1 40A#C10401630A461101
(1591150616.667946) can1 423#FFFFFFFF20000000
(1591150616.668964) can1 425#900000C00000B1C0
(1591150616.669987) can1 426#AA00000000008800
(1591150616.715675) can1 426#AA00000000008800
(1591150616.719580) can1 527#3B1200
(1591150616.725060) can1 399#0000000000000000
(1591150616.731779) can1 399#0000000000000000
(1591150616.765109) can1 3B0#0D00000000000000
(1591150616.766010) can1 3BC#0000207F6A00AA00
(1591150616.767048) can1 423#FFFFFFFF20000000
(1591150616.768080) can1 425#900000C00020B1C0
(1591150616.769119) can1 426#AA00000000008800
(1591150616.792439) can1 124#0202000000000000
(1591150616.793444) can1 35E#8000000000000000
(1591150616.794473) can1 3E7#0000000000000000
(1591150616.795436) can1 41A#00009860B8067590
(1591150616.810444) can1 000#
(1591150616.810466) can1 53B#411200
(1591150616.815008) can1 000#
(1591150616.815031) can1 426#AA00000000008800
(1591150616.864941) can1 3B0#0D00000000000000
(1591150616.865992) can1 3BC#0000207F6A00AA00
(1591150616.866930) can1 40A#C110090822450000
(1591150616.867949) can1 423#FFFFFFFF20000000
(1591150616.868963) can1 425#900000C00000B1C0
(1591150616.869987) can1 426#AA00000000008800
(1591150616.904583) can1 541#011200
(1591150616.914950) can1 426#AA00000000008800
(1591150616.965044) can1 3B0#0D00000000000000
(1591150616.966043) can1 3BC#0000207F6A00AA00
(1591150616.967101) can1 423#FFFFFFFF20000000
(1591150616.968081) can1 425#900000C00000B1C0
(1591150616.969104) can1 426#AA00000000008800
(1591150616.984335) can1 125#0202000000000000
(1591150616.996001) can1 501#0302000000000000
(1591150617.014985) can1 426#AA00000000008800
(1591150617.064948) can1 3B0#0D00000000000000
(1591150617.065946) can1 3BC#0000207F6A00AA00
(1591150617.066930) can1 40A#C00000B527596F00
(1591150617.067993) can1 423#FFFFFFFF20000000
(1591150617.068968) can1 425#900000C00000B1C0
(1591150617.069991) can1 426#AA00000000008800
(1591150617.084408) can1 503#0B1200
(1591150617.114950) can1 426#AA00000000008800
(1591150617.165002) can1 3B0#0D00000000000000
(1591150617.166033) can1 3BC#0400207F6A00AA00
(1591150617.167023) can1 423#FFFFFFFF20000000
(1591150617.168038) can1 425#900000C00000B1C0
(1591150617.169061) can1 426#AA00000000008800
(1591150617.215282) can1 426#AA04000000008800
(1591150617.264998) can1 3B0#0D00000000000000
(1591150617.265992) can1 3BC#0000207F6A00AA40
(1591150617.267049) can1 000#
(1591150617.267071) can1 40A#C100314654385733
(1591150617.267987) can1 423#FFFFFFFF20000000
(1591150617.269002) can1 425#900000C00000B1C0
(1591150617.270110) can1 000#
(1591150617.270132) can1 426#AA00000000008800
(1591150617.314966) can1 426#AA00000000008800
(1591150617.365045) can1 3B0#8D00000000000000
(1591150617.366013) can1 3BC#0000207F6A00AA00
(1591150617.367036) can1 423#FFFFFFFF20000000
(1591150617.368051) can1 425#900000C00000B1C0
(1591150617.369074) can1 426#AA00000000008800
(1591150617.415069) can1 426#AA00000000008800
(1591150617.450873) can1 53B#3B0100
(1591150617.455970) can1 000#
(1591150617.455992) can1 501#0101000000000000
(1591150617.464552) can1 541#410100
(1591150617.465525) can1 083#000FFF7402007EC9
(1591150617.466491) can1 385#00EA02F219000000
(1591150617.467515) can1 3B0#0D00000000000000
(1591150617.468122) can1 503#030100
(1591150617.469080) can1 3BC#0000207F6A20AB00
(1591150617.470127) can1 3E0#0000000083C00000
(1591150617.471150) can1 3E2#000000000004804D
(1591150617.472109) can1 40A#C101425434424542
(1591150617.473132) can1 423#FFFFFFFF20000000
(1591150617.474143) can1 425#900000C00000B1C0
(1591150617.475153) can1 10D#0000000000000000
(1591150617.475753) can1 527#270100
(1591150617.476727) can1 426#AA00000000008800
(1591150617.477792) can1 42C#0000000000000000
(1591150617.485932) can1 3A0#1100800289240000
(1591150617.495504) can1 3B2#000000730000FE00
(1591150617.515106) can1 3C3#0000010001410B00
(1591150617.515963) can1 426#AA00000000008800
(1591150617.525008) can1 3C4#0034940000C0A4B0
(1591150617.535014) can1 3C6#0000000000000000
(1591150617.545046) can1 3D0#1C41000000000000
(1591150617.550579) can1 53B#411200
(1591150617.565045) can1 3B0#0D00000000000000
(1591150617.566036) can1 3BC#0000207F6A00AB00
(1591150617.567069) can1 423#FFFFFFFF20000000
(1591150617.568082) can1 425#900000C00000B1C0
(1591150617.569105) can1 426#AA00000000008800
(1591150617.614971) can1 426#AA00000000008800
(1591150617.622891) can1 3EB#801E7080805000
(1591150617.644567) can1 541#031200
(1591150617.655810) can1 501#0301000000000000
(1591150617.665025) can1 3B0#0D00000000000000
(1591150617.666009) can1 3BC#0000207F6A00AB00
(1591150617.666999) can1 40A#C102343033323600
(1591150617.668023) can1 423#FFFFFFFF20000000
(1591150617.669069) can1 425#900000C00080B1C0
(1591150617.670093) can1 426#AA00000000008800
(1591150617.715129) can1 426#AA00000000008800
(1591150617.729545) can1 503#0B1200
(1591150617.765072) can1 3B0#0D00000000000000
(1591150617.766063) can1 3BC#0000207F6A00AB00
(1591150617.767085) can1 423#FFFFFFFF20000000
(1591150617.768100) can1 425#900000C00000B1C0
(1591150617.769124) can1 426#AA00080000008800
(1591150617.800418) can1 124#0202000000000000
(1591150617.801418) can1 35E#8000000000000000
(1591150617.802451) can1 3E7#0000000000000000
(1591150617.803410) can1 41A#00009860B8067590
(1591150617.814987) can1 426#AA00000000008800
(1591150617.844049) can1 527#3B1100
(1591150617.865023) can1 3B0#0D00000000000000
(1591150617.866006) can1 3BC#0000207F6A00AB00
(1591150617.866998) can1 40A#C10401630A461101
(1591150617.868021) can1 423#FFFFFFFF20000000
(1591150617.869034) can1 425#900000C00000B1C0
(1591150617.870059) can1 426#AA00000000008800
(1591150617.910969) can1 53B#411200
(1591150617.914993) can1 426#AA00001000008800
(1591150617.965091) can1 3B0#0D00000000000000
(1591150617.966051) can1 3BC#0000207F6A00AB00
(1591150617.967073) can1 423#FFFFFFFF20000000
(1591150617.968088) can1 425#900000C00000B1C0
(1591150617.969111) can1 426#AA00000000008800
(1591150618.004569) can1 541#011200
(1591150618.007419) can1 125#0202000000000000
(1591150618.009066) can1 50C#271400
(1591150618.015025) can1 426#AA00000000008800
(1591150618.047596) can1 39A#000000FE00000000
(1591150618.048683) can1 39A#000000FE00000000
(1591150618.057720) can1 39A#000000FE00000000
(1591150618.065271) can1 3B0#0D00000000800000
(1591150618.066255) can1 3BC#0000207F6A00AB00
(1591150618.067252) can1 40A#C110090822450000
(1591150618.068275) can1 423#FFFFFFFF20000000
(1591150618.069321) can1 425#900000C00000B1C0
(1591150618.070313) can1 426#AA00000000008800
(1591150618.088540) can1 50C#0C1400
(1591150618.095837) can1 501#0302000000000000
(1591150618.108505) can1 50C#0C0100
(1591150618.115031) can1 426#AA00000000008800
(1591150618.165164) can1 3B0#0D00100000000000
(1591150618.166155) can1 3BC#0000207F6A00AB00
(1591150618.167177) can1 423#FFFFFFFF20000000
(1591150618.168193) can1 425#900000C00000B1C0
(1591150618.169216) can1 426#AA00000000008800
(1591150618.193211) can1 503#0B1200
(1591150618.215295) can1 426#AA00000000008800
(1591150618.265146) can1 3B0#0D00000000000000
(1591150618.266136) can1 3BC#0000207F6A00AB00
(1591150618.267158) can1 40A#C00000B527597B00
(1591150618.268151) can1 423#FFFFFFFF20000000
(1591150618.269165) can1 425#900000C00000B1C0
(1591150618.270188) can1 426#AA00000000008800
(1591150618.315090) can1 426#AA00000000008800
(1591150618.365333) can1 3B0#0D00000000000000
(1591150618.366122) can1 3BC#0000207F6A00AB10
(1591150618.367143) can1 423#FFFFFFFF20000000
(1591150618.368189) can1 425#900000C00000B1C0
(1591150618.369182) can1 426#AA00000000008800
(1591150618.415092) can1 426#AA00000000008800
(1591150618.455274) can1 503#030100
(1591150618.456259) can1 501#0101000000000000
(1591150618.464791) can1 541#410100
(1591150618.465601) can1 083#000FFF7400007EC9
(1591150618.466561) can1 385#00EA02F219000000
(1591150618.467594) can1 3B0#0D00000000000000
(1591150618.468598) can1 3BC#0000207F6A00AC00
(1591150618.469186) can1 50C#0C0100
(1591150618.470193) can1 3E0#0000000083C00000
(1591150618.471813) can1 53B#3B0100
(1591150618.472743) can1 40A#C100314654385733
(1591150618.473756) can1 423#FFFFFFFF20000000
(1591150618.474779) can1 425#908000C00000B1C0
(1591150618.475804) can1 10D#0000000000040000
(1591150618.476880) can1 426#AA00000000008800
(1591150618.477898) can1 42C#0000000000000000
(1591150618.478490) can1 527#270100
(1591150618.485305) can1 3A0#1100800289240000
(1591150618.495202) can1 3B2#000000730000FE00
(1591150618.505453) can1 3B3#0043050000000000
(1591150618.515022) can1 3C3#0000010001410B00
(1591150618.516046) can1 426#AA00000000008800
(1591150618.525192) can1 3C4#0034940000C0A4B0
(1591150618.535095) can1 3C6#0000000000000000
(1591150618.545166) can1 3D0#1C41008000000000
(1591150618.555965) can1 501#0302000000000000
(1591150618.556592) can1 503#0B1200
(1591150618.565245) can1 3B0#0D00000000000000
(1591150618.566242) can1 3BC#0000207F6A00AC00
(1591150618.567266) can1 423#FFFFFFFF20000000
(1591150618.568280) can1 425#900000C00000B1C0
(1591150618.569304) can1 426#AA00000000008800
(1591150618.615095) can1 426#AA00000000008800
(1591150618.622915) can1 3EB#801E7080805000
(1591150618.665388) can1 3B0#0D00000000000000
(1591150618.666188) can1 3BC#0000207F6A00AC00
(1591150618.667142) can1 40A#C101425434424542
(1591150618.669262) can1 423#FFFFFFFF20000000
(1591150618.670225) can1 425#900000C00000B1C0
(1591150618.671247) can1 426#AA00000000008800
(1591150618.715796) can1 426#AA00000000008800
(1591150618.731352) can1 399#0000000000000000
(1591150618.765303) can1 3B0#0D00000000000000
(1591150618.766154) can1 3BC#0000207F6A00AC00
(1591150618.767177) can1 423#FFFFFFFF20000000
(1591150618.768207) can1 425#900000C00000B1C0
(1591150618.769230) can1 426#AA00000000008800
(1591150618.769898) can1 50C#271400
(1591150618.808386) can1 124#0202000000000000
(1591150618.809428) can1 35E#8000000000000000
(1591150618.810418) can1 3E7#0000000000000000
(1591150618.811376) can1 41A#00009860B8067590
(1591150618.815105) can1 426#AA00000000008800
(1591150618.865136) can1 3B0#0D00000000000000
(1591150618.866137) can1 3BC#0000207F6A02AC00
(1591150618.867100) can1 40A#C102343033323600
(1591150618.868130) can1 423#FFFFFFFF20000000
(1591150618.869145) can1 425#900000C00000B1C0
(1591150618.870168) can1 426#AA00000000008810
(1591150618.904678) can1 541#410100
(1591150618.907784) can1 527#270100
(1591150618.908621) can1 50C#0C0100
(1591150618.911296) can1 53B#3B0100
(1591150618.915181) can1 426#AA04000000008800
(1591150618.916228) can1 501#0101000000000000
(1591150618.918938) can1 503#030100
(1591150618.965222) can1 3B0#0D00000000000000
(1591150618.966304) can1 000#
(1591150618.966321) can1 3BC#0000207F6A00AC00
(1591150618.967272) can1 423#FFFFFFFF20000000
(1591150618.968256) can1 425#900000C00000B1C0
(1591150618.969280) can1 426#AA00000000008800
(1591150619.015278) can1 426#AA00000000008800
(1591150619.030508) can1 125#0202000000000000
(1591150619.065162) can1 3B0#0D00000000000000
(1591150619.066154) can1 3BC#0000207F6A00AC00
(1591150619.067146) can1 40A#C10401630A461101
(1591150619.068182) can1 423#FFFFFFFF20000000
(1591150619.069198) can1 425#900000C00000B1C0
(1591150619.070220) can1 426#AA00000000008800
(1591150619.088518) can1 50C#3B1200
(1591150619.091962) can1 527#3B1100
(1591150619.115132) can1 426#AA00000000008800
(1591150619.166187) can1 3BC#0000207F6A00AC00
(1591150619.167219) can1 423##0FFFFFFFF00000000
(1591150619.168234) can1 425#900000C00000B1C0
(1591150619.169259) can1 426#AA00000000008800
(1591150619.171334) can1 53B#011200
(1591150619.184644) can1 541#011100
(1591150619.215307) can1 426#AA00000000008800
(1591150619.256056) can1 501#0302000000000000
(1591150619.265164) can1 3B0#0D00000000000000
(1591150619.266194) can1 3BC#0000207F6A00AC00
(1591150619.267200) can1 40A#C110090822450000
(1591150619.268222) can1 423#FFFFFFFF20000000
(1591150619.269236) can1 425#900000C00000B1C0
(1591150619.270259) can1 426#AA00000000008800
(1591150619.315142) can1 426#AA00000000008800
(1591150619.342274) can1 503#0B1200
(1591150619.365306) can1 3B0#0D00000000000000
(1591150619.366392) can1 3BC#0000207F6A00AC00
(1591150619.367352) can1 423#FFFFFFFF20000000
(1591150619.368337) can1 425#900000C00000B1C0
(1591150619.369355) can1 426#AA00000000008800
(1591150619.415237) can1 426#AA00000000008800
(1591150619.465446) can1 000#
(1591150619.465466) can1 083#000FFF7400007EC9
(1591150619.466164) can1 385#00EA02F219000000
(1591150619.467186) can1 3B0#0D00000000000000
(1591150619.468189) can1 3BC#0000207F6A00AD00
(1591150619.469232) can1 3E0#0000000083C00000
(1591150619.470254) can1 3E2#000000000004804D
(1591150619.471238) can1 40A#C00000B527598700
(1591150619.472249) can1 423#FFFFFFFF20000000
(1591150619.473265) can1 425#900000C00000B1C0
(1591150619.474305) can1 426#AA00000000008800
(1591150619.476545) can1 10D#0000800000000000
(1591150619.477402) can1 3D0#1C41000000000000
(1591150619.478464) can1 42C#0000000000000000
(1591150619.495383) can1 3B2#000000730000FE00
(1591150619.505516) can1 3B3#0043050000000000
(1591150619.515191) can1 3C3#0000010001410B00
(1591150619.516212) can1 426#AA00000000008800
(1591150619.528835) can1 50C#271200
(1591150619.535215) can1 3C6#0000000000000000
(1591150619.545262) can1 3D0#1C41000000000000
(1591150619.565205) can1 3B0#0D00000000000000
(1591150619.566241) can1 3BC#000020FF6A00AD00
(1591150619.567233) can1 423#FFFFFFFF20000000
(1591150619.568248) can1 425#900000C00000B1C0
(1591150619.569272) can1 426#AA00000000008800
(1591150619.615253) can1 426#AA00000000008800
(1591150619.622986) can1 3EB#801E7080805000
(1591150619.623994) can1 527#3B1200
(1591150619.665179) can1 3B0#0D00000000000000
(1591150619.666248) can1 3BC#0000207F6A00AD00
(1591150619.667168) can1 40A#C100314654385733
(1591150619.668191) can1 423#FFFFFFFF20000000
(1591150619.669206) can1 425#900001C00000B1C0
(1591150619.670233) can1 426#AA00000000008800
(1591150619.715792) can1 426#AA00000000008800
(1591150619.717444) can1 53B#413200
(1591150619.728562) can1 399#0000000000000000
(1591150619.765369) can1 3B0#0D00000000000000
(1591150619.766227) can1 3BC#0000207F6A00AD00
(1591150619.767281) can1 423#FFFFFFFF24000000
(1591150619.768250) can1 425#900000C00000B1C0
(1591150619.769287) can1 426#AA00000000008800
(1591150619.804588) can1 541#011200
(1591150619.815282) can1 426#AA00000000008800
(1591150619.816403) can1 124#0202000000000000
(1591150619.817419) can1 35E#8000000000000000
(1591150619.818441) can1 3E7#0000000000000000
(1591150619.819400) can1 41A#00009860B8067590
(1591150619.865195) can1 3B0#0D00200000000000
(1591150619.866185) can1 3BC#0000207F6A00AD00
(1591150619.867144) can1 40A#C101425434424542
(1591150619.868167) can1 423#FFFFFFFF20000000
(1591150619.869182) can1 425#900000C00000B1C0
(1591150619.870205) can1 426#AA00000000008800
(1591150619.896145) can1 501#0302400000000000
(1591150619.915239) can1 426#AA00000000008800
(1591150619.965250) can1 3B0#0D00000000000000
(1591150619.966389) can1 3BC#0000207F6A00AD00
(1591150619.967263) can1 423#FFFFFFFF20000000
(1591150619.968278) can1 425#900000C00000B1C0
(1591150619.969301) can1 426#R8
(1591150619.987371) can1 503#0B1200
(1591150620.015428) can1 426#AA00000000008800
(1591150620.053571) can1 125#0202000000000000
(1591150620.065217) can1 3B0#0D00000000000000
(1591150620.066239) can1 3BC#0000207F6A00AD00
(1591150620.067208) can1 40A#C102343033323600
(1591150620.068316) can1 000#
(1591150620.068333) can1 423#FFFFFFFF20000000
(1591150620.069331) can1 000#
(1591150620.069349) can1 425#900000C00000B1C0
(1591150620.070269) can1 426#AA00020000008800
(1591150620.075324) can1 000#
(1591150620.115547) can1 426#AA00000000008800
(1591150620.165331) can1 3B0#0D00000000000000
(1591150620.166314) can1 3BC#0000207F6A00AD00
(1591150620.167336) can1 423#FFFFFFFF20000000
(1591150620.168351) can1 425#900000C00000B1C0
(1591150620.169374) can1 426#AA00000000008800
(1591150620.215466) can1 426#AA00000000008800
(1591150620.265243) can1 3B0#0D00000000000000
(1591150620.266218) can1 3BC#0000207F6A00AD00
(1591150620.267208) can1 40A#C10401630A461101
(1591150620.268231) can1 423#FFFFFFFF20000000
(1591150620.269347) can1 000#
(1591150620.269364) can1 425#900000C00000B1C0
(1591150620.270270) can1 426#AA00000000008800
(1591150620.315280) can1 426#AA00000000008800
(1591150620.344823) can1 541#410100
(1591150620.350266) can1 503#030100
(1591150620.351902) can1 000#
(1591150620.351919) can1 53B#3B0100
(1591150620.356145) can1 501#0101000000000080
(1591150620.360570) can1 527#270100
(1591150620.365362) can1 3B0#0D00000000000000
(1591150620.366245) can1 3BC#0000207F6A00AD00
(1591150620.367284) can1 423#FFFFFFFF20000000
(1591150620.368282) can1 425#900000C00000B1C0
(1591150620.369317) can1 426#AA00000000008800
(1591150620.415222) can1 426#AA00000000008800
(1591150620.465330) can1 083#000FFF7400007EC9
(1591150620.466170) can1 385#00EA02F219000000
(1591150620.467280) can1 3B0#0D00000000000000
(1591150620.468182) can1 3BC#0000207F6A00AD00
(1591150620.469218) can1 3E0#0000000083C00000
(1591150620.470241) can1 3E2#000000000004804D
(1591150620.471232) can1 40A#C110090822450000
(1591150620.472255) can1 423#FFFFFFFF20000000
(1591150620.473281) can1 425#900000C00000B1C0
(1591150620.474319) can1 426#AA00000000008800
(1591150620.475386) can1 42C#0000000000000000
(1591150620.476381) can1 10D#0000000000000000
(1591150620.485647) can1 3A0#1100800289240020
(1591150620.495245) can1 3B2#000000730000FE00
(1591150620.505646) can1 3B3#0043050000000000
(1591150620.515292) can1 3C3#0000010001410B00
(1591150620.516325) can1 426#AA00000000008800
(1591150620.524285) can1 527#0B1200
(1591150620.525351) can1 3C4#0034940000C0A4B0
(1591150620.531730) can1 503#0B1100
(1591150620.535344) can1 3C6#0000000000000000
(1591150620.536377) can1 501#0301000000000002
(1591150620.544622) can1 541#011100
(1591150620.545610) can1 3D0#1C41000000000000
(1591150620.565280) can1 3B0#0D00000000000000
(1591150620.566270) can1 3BC#0000207F6A00AD00
(1591150620.567292) can1 423#FFFFFFFF20000000
(1591150620.568308) can1 425#900000C00000B1C0
(1591150620.569330) can1 426#AA00000000008800
(1591150620.615435) can1 426#AA00000000008800
(1591150620.622949) can1 3EB#801E7080805000
(1591150620.665451) can1 3B0#0D00000000000000
(1591150620.666245) can1 3BC#0000207F6A00AD00
(1591150620.667236) can1 40A#C20000B527599300
(1591150620.668247) can1 423#FFFFFFFF20000000
(1591150620.669274) can1 425#900000C00000B1C0
(1591150620.670306) can1 426#AA00000000008800
(1591150620.715410) can1 426#AA00000000008800
(1591150620.765293) can1 3B0#0D00000000000000
(1591150620.766309) can1 3BC#0000207F6A00AD00
(1591150620.767317) can1 423#FFFFFFFF20000000
(1591150620.768346) can1 425#900000C00000B1C0
(1591150620.769369) can1 426#AA00000000008800
(1591150620.790250) can1 527#270100
(1591150620.791982) can1 53B#3B0100
(1591150620.793772) can1 503#030100
(1591150620.796400) can1 501#0101000000000000
(1591150620.804688) can1 541#410100
(1591150620.815382) can1 426#AA00000000008800
(1591150620.824351) can1 124#0202000000000000
(1591150620.825364) can1 35E#8000000000000000
(1591150620.826389) can1 3E7#0000000000000000
(1591150620.827347) can1 41A#00009860B8067590
(1591150620.865329) can1 3B0#0D00000000000000
(1591150620.866352) can1 3BC#0000207F6A00AD00
(1591150620.867325) can1 40A#C100314654385733
(1591150620.868347) can1 423#FFFFFFFF20000000
(1591150620.869362) can1 425#900000C00000B1C0
(1591150620.870416) can1 426#AA00000000008800
(1591150620.892168) can1 53B#411200
(1591150620.892759) can1 527#3B1200
(1591150620.909109) can1 50C#271400
(1591150620.915300) can1 426#AA00000000008800
(1591150620.949362) can1 399#0000000000000000
(1591150620.965428) can1 3B0#0D00000000000000
(1591150620.966319) can1 3BC#0000207F6A00AD00
(1591150620.967358) can1 423#FFFFFFFF20000000
(1591150620.968389) can1 425#900000C00000B1C0
(1591150620.969428) can1 426#AA00000000008800
(1591150620.988651) can1 50C#0C9400
(1591150620.992130) can1 53B#413200
(1591150621.015272) can1 426#AA00000000008800
(1591150621.065307) can1 3B0#0D00000000000000
(1591150621.066317) can1 3BC#0000207F6A00AD00
(1591150621.067242) can1 40A#C101425434424542
(1591150621.068249) can1 423#FFFFFFFF20000000
(1591150621.069279) can1 425#900000C00000B1C0
(1591150621.070288) can1 426#AA00000000008800
(1591150621.115264) can1 426#AA00000000008800
(1591150621.165342) can1 3B0#0D00000000000000
(1591150621.166341) can1 3BC#0000207F6A00AD00
(1591150621.167368) can1 423#FFFFFFFF20000000
(1591150621.168381) can1 425#900000C00000B1C0
(1591150621.169404) can1 426#AA00004000008800
(1591150621.215447) can1 426#AA20000000008800
(1591150621.256218) can1 501#0101000000000000
(1591150621.257472) can1 503#030100
(1591150621.260877) can1 527#270100
(1591150621.264669) can1 541#410100
(1591150621.265655) can1 3B0#0D00000000000000
(1591150621.267418) can1 3BC#0000207F6A00AD00
(1591150621.268793) can1 40A#C102343033327600
(1591150621.270562) can1 423#FFFFFFFF20000000
(1591150621.272182) can1 425#900400C00000B1C0
(1591150621.273900) can1 426#AA00000000008800
(1591150621.275045) can1 53B#3B0100
(1591150621.315578) can1 426#EA00000000008800
(1591150621.342661) can1 125#0202000000000000
(1591150621.356130) can1 501#0302000000000000
(1591150621.365460) can1 000#
(1591150621.365476) can1 3B0#0D00000000000000
(1591150621.366364) can1 3BC#0000207F6A00AD00
(1591150621.367386) can1 423#FFFFFFFF20000000
(1591150621.368409) can1 425#900000C00000B1C0
(1591150621.369439) can1 426#AA00000000008800
(1591150621.415328) can1 426#AA00000000008800
(1591150621.438901) can1 503#0B0200
(1591150621.465331) can1 083#000FFF7400007EC9
(1591150621.466395) can1 000#
(1591150621.466414) can1 385#00EA02F219000000
(1591150621.467319) can1 3B0#0D00000000000000
(1591150621.468305) can1 3BC#0000207F6A00AE02
(1591150621.469368) can1 3E0#0000000083C00000
(1591150621.470378) can1 3E2#000000000004804D
(1591150621.471454) can1 000#
(1591150621.471472) can1 40A#C10401630A461101
(1591150621.472394) can1 423#FFFFFFFF20000000
(1591150621.473411) can1 425#900000C00000B1C0
(1591150621.474472) can1 426#AA00000000008800
(1591150621.476652) can1 10D#0000000000000000
(1591150621.478738) can1 42C#0000000000000000
(1591150621.485593) can1 3A0#1100800289240000
(1591150621.495287) can1 3B2#000000730000FE00
(1591150621.505654) can1 3B3#0043050000000000
(1591150621.515271) can1 3C3#0000010001410B00
(1591150621.516333) can1 426#AA02000000008800
(1591150621.527088) can1 527#R3
(1591150621.535304) can1 3C6#0000000000000000
(1591150621.545371) can1 3D0#1C41000000000000
(1591150621.565395) can1 3B0#0D00000000000000
(1591150621.566403) can1 3BD#0000207F6A00AE00
(1591150621.567522) can1 080#
(1591150621.567539) can1 423#FFFFFFFF20000000
(1591150621.568440) can1 425#900000C00000B1C0
(1591150621.569463) can1 426#AA00000000008800
(1591150621.612304) can1 53B#010200
(1591150621.615293) can1 426#AA00000000008800
(1591150621.624658) can1 541#010100
(1591150621.665356) can1 3B0#0D00000000000000
(1591150621.666385) can1 3BC#0000207F6A00AE00
(1591150621.667377) can1 40A#C110090822450000
(1591150621.668399) can1 423#FFFFFFFF20000000
(1591150621.669414) can1 425#900000C00000B1C0
(1591150621.670445) can1 426#AA00000000008800
(1591150621.696215) can1 501#0302000000000000
(1591150621.715504) can1 426#AA00000000008800
(1591150621.765370) can1 3B0#0D00000000000000
(1591150621.766376) can1 3BC#0000207FEA00AE00
(1591150621.767399) can1 423#FFFFFFFF20000000
(1591150621.768413) can1 425#900000C00000B1C0
(1591150621.769516) can1 000#
(1591150621.769533) can1 426#AA00000000008800
(1591150621.781607) can1 503#0B0200
(1591150621.815331) can1 426#AA00000000008800
(1591150621.865463) can1 3B0#0D00000000000000
(1591150621.867058) can1 3BC#0000207F6A00AE00
(1591150621.868621) can1 40A#C00000B527599F00
(1591150621.870163) can1 423#FFFFFFFF20000400
(1591150621.871715) can1 425#900000C00000B1C0
(1591150621.873301) can1 426#AA00000000008800
(1591150621.883201) can1 3EB#801E7080805000
(1591150621.915341) can1 426#AA00000000008800
(1591150621.975900) can1 3B0#0D00000000000000
(1591150621.977930) can1 3BC#0000207F6A00AE00
(1591150621.978798) can1 399#0000000000000000
(1591150621.979773) can1 423#FFFFFFFF20000000
(1591150621.980380) can1 527#3B1200
(1591150621.981348) can1 425#900000C00000B1C0
(1591150621.982370) can1 426#AA00000000008800
(1591150621.990274) can1 399#0000000000000000
(1591150622.015477) can1 426#AA00000000008800
(1591150622.028668) can1 50C#270400
(1591150622.065442) can1 3B0#0D00000000000000
(1591150622.066570) can1 3BC#0000207F6A00AE00
(1591150622.067480) can1 40A#C100314654385733
(1591150622.068489) can1 423#FFFFFFFF20000000
(1591150622.069504) can1 425#900000C00000B1C0
(1591150622.070529) can1 426#AA00000000008800
(1591150622.072475) can1 53B#410200
(1591150622.088707) can1 50C#0C0100
(1591150622.094383) can1 124#0202000000400000
(1591150622.095405) can1 35E#8000000000000000
(1591150622.096434) can1 3E7#0000000000000000
(1591150622.097378) can1 41A#00009860B8067590
(1591150622.115398) can1 426#AA00000000008800
(1591150622.164644) can1 541#010200
(1591150622.165643) can1 3B0#0D80000000000000
(1591150622.166647) can1 3BC#0000607F6A00AE00
(1591150622.167671) can1 423#FFFFFFFF20000000
(1591150622.168686) can1 425#900000C00000B1C0
(1591150622.169712) can1 426#AA00000000008800
(1591150622.215505) can1 426#AA00000000008800
(1591150622.256102) can1 501#0302000000000000
(1591150622.265308) can1 3B0#0D00000000000000
(1591150622.266300) can1 3BC#0000207F6A00AE00
(1591150622.267273) can1 40A#C101425434424542
(1591150622.268295) can1 423#FFFFFFFF20000000
(1591150622.269310) can1 425#900000C00000B1C0
(1591150622.270348) can1 426#AA00000000008800
(1591150622.315335) can1 50B#0C0200
(1591150622.315353) can1 426#AA00000000008800
(1591150622.346041) can1 503#0B0200
(1591150622.365337) can1 3B0#0D00000000000000
(1591150622.366318) can1 12D#0202000000000000
(1591150622.367293) can1 3BC#0000207F6A00AE00
(1591150622.368316) can1 423#FFFFFFFF20000000
(1591150622.369331) can1 425#900000C00000B1C0
(1591150622.370371) can1 426#AA00000000008800
(1591150622.415313) can1 526#AA00000000008800
(1591150622.465408) can1 083#000FFF7400007EC9
(1591150622.466384) can1 385#00EA02F219000000
(1591150622.467394) can1 3B0#0D00000000000000
(1591150622.468408) can1 3BC#0000207F6A00AF00
(1591150622.469584) can1 3E0#0000000083C00000
(1591150622.470447) can1 3E2#000000000004804D
(1591150622.471423) can1 40A#C102343033323600
(1591150622.472435) can1 423#FFFFFFFF20000000
(1591150622.473451) can1 425#900000C00000B1C0
(1591150622.474484) can1 426#AA00000000008800
(1591150622.475520) can1 10D#0000000000000001
(1591150622.476581) can1 42C#0000000000000000
(1591150622.485853) can1 3A0#1100800289240200
(1591150622.495467) can1 3B2#000000730000FE00
(1591150622.505695) can1 3B3#0043050000000000
(1591150622.515272) can1 3C3#0000010001410B00
(1591150622.516292) can1 426#AA00000000008800
(1591150622.525347) can1 3C4#0034940000C0A4B0
(1591150622.535340) can1 3C6#0000000000000000
(1591150622.545347) can1 3D0#1C41000000000000
(1591150622.565481) can1 3B0#0D00000000000000
(1591150622.566471) can1 3BC#0000217F6A00AF00
(1591150622.567493) can1 423#FFFFFFFF20000000
(1591150622.568508) can1 425#900000C00000B1C0
(1591150622.569532) can1 426#AA00000000008800
(1591150622.608129) can1 503#030100
(1591150622.608720) can1 50C#0C0100
(1591150622.612527) can1 53B#3B0100
(1591150622.615321) can1 426#AA00000000008800
(1591150622.616364) can1 501#0101000000000000
(1591150622.624747) can1 541#410100
(1591150622.631774) can1 527#270100
(1591150622.665346) can1 3B0#0D00000000000000
(1591150622.666401) can1 3BC#0000207F6A00AF00
(1591150622.667307) can1 40A#C10401630A461101
(1591150622.668329) can1 423#FFFFFFFF20000000
(1591150622.669349) can1 425#900020C00000B1C0
(1591150622.670372) can1 426#AA00000000008800
(1591150622.708662) can1 50C#270200
(1591150622.709265) can1 503#0B0200
(1591150622.715502) can1 426#AA00000000008800
(1591150622.765419) can1 3B0#0D00000000000000
(1591150622.766382) can1 3BC#0000207F6A00AF00
(1591150622.767405) can1 423#FFFFFFFF20000000
(1591150622.768420) can1 425#900000C00000B1C0
(1591150622.769439) can1 426#AA00000000008800
(1591150622.815556) can1 426#AA00000000008800
(1591150622.865416) can1 3B0#0D00000000000000
(1591150622.866416) can1 3BC#0000207F6A00AF00
(1591150622.867409) can1 40A#C110090822450000
(1591150622.868432) can1 423#FFFFFFFF20000000
(1591150622.869444) can1 425#900000C00800B1C0
(1591150622.870471) can1 426#AA00000000408800
(1591150622.882995) can1 3EB#801E7080805000
(1591150622.889072) can1 50C#270200
(1591150622.915325) can1 426#AA00000000008800
(1591150622.975936) can1 3B0#0D00000000000000
(1591150622.977996) can1 3BC#0000207F6A00AF00
(1591150622.978822) can1 399#0000000000000000
(1591150622.979797) can1 423#FFFFFFFF20000000
(1591150622.980391) can1 527#031200
(1591150622.981359) can1 425#900000C00000B1C0
(1591150622.982382) can1 426#AA00000000008800
(1591150622.985304) can1 541#030100
(1591150622.993688) can1 53B#410100
(1591150622.996894) can1 501#0303000000000000
(1591150623.015346) can1 426#AA00000000008800
(1591150623.028708) can1 50C#270400
(1591150623.065364) can1 3B0#0D00000000000000
(1591150623.066353) can1 3BC#0000207F6A00AF00
(1591150623.067344) can1 40A#C00000B52759AB00
(1591150623.068367) can1 423#FFFFFFFF20000000
(1591150623.069382) can1 425#900000C00000B1C0
(1591150623.070404) can1 426#AA00000000008800
(1591150623.071836) can1 503#0B0200
(1591150623.088710) can1 50C#0C0100
(1591150623.102359) can1 124#0202000000000000
(1591150623.103365) can1 35E#8000000000000000
(1591150623.104401) can1 3E7#0020000000000000
(1591150623.115362) can1 426#AA00000000008800
(1591150623.159017) can1 000#
(1591150623.165662) can1 3B0#0D00000000000000
(1591150623.166417) can1 3BC#0000207F6A00AF00
(1591150623.167439) can1 423#FFFFFFFF20000000
(1591150623.168452) can1 425#900000C00000B1C0
(1591150623.169477) can1 426#AA00000000008800
(1591150623.215513) can1 426#AA00000000008800
(1591150623.248682) can1 50C#0B0200
(1591150623.252991) can1 53B#412100
(1591150623.253599) can1 503#0B0100
(1591150623.256312) can1 501#0301000000000000
(1591150623.264727) can1 541#010100
(1591150623.265720) can1 3B0#0D00000000000000
(1591150623.266319) can1 527#3B1100
(1591150623.267281) can1 3BC#0000207F6A00AF00
(1591150623.268256) can1 40A#C100314654385733
(1591150623.269278) can1 423#FFFFFFFF20000000
(1591150623.270293) can1 425#900000C00000B1C0
(1591150623.271317) can1 426#AA00000000008800
(1591150623.315383) can1 426#AA00000000008800
(1591150623.365577) can1 3B0#0D08000000000000
(1591150623.366481) can1 000#
(1591150623.366502) can1 3BC#0000207F6A00AF00
(1591150623.367503) can1 000#
(1591150623.367524) can1 423#FFFFFFFF20000000
(1591150623.368435) can1 425#900001C00000B1C0
(1591150623.369482) can1 426#AA00000000008800
(1591150623.388806) can1 125#0202000000000000
(1591150623.415380) can1 426#AA00000000008800
(1591150623.428685) can1 50C#270200
(1591150623.465361) can1 083#000FFF7400007EC9
(1591150623.467417) can1 385#00EA02F219000000
(1591150623.469408) can1 000#
(1591150623.469605) can1 3B0#0D00100000000000
(1591150623.471521) can1 3BC#R8
(1591150623.472544) can1 000#
(1591150623.473609) can1 3E0#0000000083C00000
(1591150623.475612) can1 3E2#000000000004804D
(1591150623.477669) can1 10D#0000000000000000
(1591150623.479634) can1 40A#C101425434424542
(1591150623.481663) can1 423#FFFFFFFF20000000
(1591150623.483717) can1 425#900000C00000B1C0
(1591150623.485718) can1 426#AA00000000008800
(1591150623.487727) can1 3A0#1100800289240000
(1591150623.489776) can1 42C#0000000000000000
(1591150623.495558) can1 3B2#000000730000FE00
(1591150623.505734) can1 3B3#0043050000000000
(1591150623.511680) can1 527#3B1200
(1591150623.515376) can1 3C3#0000010001410B00
(1591150623.516406) can1 426#AA00000000008800
(1591150623.525592) can1 3C4#0034940000C0A4B0
(1591150623.535372) can1 3C6#0000000000000000
(1591150623.545417) can1 3D0#1C41000000000000
(1591150623.565418) can1 3B0#0D00000000000000
(1591150623.566455) can1 3BC#0000207F6A00B000
(1591150623.567479) can1 423#FFFFFFFF20000000
(1591150623.568578) can1 000#
(1591150623.568599) can1 425#900000C00000B1C0
(1591150623.569529) can1 426#AA00000000008800
(1591150623.593207) can1 53B#410200
(1591150623.615413) can1 426#AA00000000008800
(1591150623.665395) can1 3B0#0D00000000000000
(1591150623.666440) can1 3BC#0000207F6A00B000
(1591150623.667418) can1 40A#C102343033323600
(1591150623.668440) can1 423#FFFFFFFF20000000
(1591150623.669456) can1 425#900000C00000B1C0
(1591150623.670481) can1 426#AA00000000008800
(1591150623.684753) can1 541#010200
(1591150623.715592) can1 426#AA00000000008800
(1591150623.765443) can1 3B0#0D00000000000000
(1591150623.766456) can1 3BC#0000207F6A00B000
(1591150623.767479) can1 423#FFFFFFFF20000000
(1591150623.768494) can1 425#900000C00000B1C0
(1591150623.769516) can1 426#AA00000000008800
(1591150623.776199) can1 501#0302000000000000
(1591150623.815400) can1 426#AA00000000008800
(1591150623.858007) can1 503#0B0200
(1591150623.865486) can1 3B0#0D00000000000000
(1591150623.866454) can1 3BA#339B4BA500060000
(1591150623.867507) can1 3BC#0000207F6A00B000
(1591150623.868460) can1 40A#C10401630A461101
(1591150623.869483) can1 423#FFFFFFFF20000000
(1591150623.870514) can1 425#900000C00000B1C0
(1591150623.871522) can1 426#AA00000000008800
(1591150623.883065) can1 3EB#801E7080805000
(1591150623.915686) can1 000#
(1591150623.915709) can1 426#AA00000000008800
(1591150623.925458) can1 3BA#339B75BB01060000
(1591150623.975986) can1 3B0#0D00000000000000
(1591150623.978019) can1 3BC#0000207F6A00B000
(1591150623.980053) can1 423#FFFFFFFF20000000
(1591150623.982077) can1 425#900000C00000B1C0
(1591150623.984116) can1 426#AA00000000008800
(1591150623.986091) can1 3BA#339B6E6702060000
(1591150624.015631) can1 426#AA00000000008800
(1591150624.028748) can1 50C#270400
(1591150624.045755) can1 3BA#339B6BEB03060000
(1591150624.048735) can1 50C#0C0100
(1591150624.065521) can1 3B0#0D00000000000000
(1591150624.066539) can1 3BC#0000207F6A00B000
(1591150624.067549) can1 40A#C110090822450000
(1591150624.068603) can1 423#FFFFFFFF20000000
(1591150624.069587) can1 425#900000C00000B1C0
(1591150624.070622) can1 426#AA00000000008800
(1591150624.105817) can1 3BA#0000000004060000
(1591150624.110326) can1 124#0202000000000000
(1591150624.111334) can1 35E#8000000000000000
(1591150624.112354) can1 3E7#0000000000000000
(1591150624.113323) can1 41A#00009860B8067590
(1591150624.115507) can1 426#AA00000000008800
(1591150624.120150) can1 503#030100
(1591150624.124687) can1 541#410100
(1591150624.125510) can1 527#270100
(1591150624.136452) can1 501#0101000000000000
(1591150624.165516) can1 3B0#0D00000000000000
(1591150624.166523) can1 3BA#0000000005060000
(1591150624.167573) can1 3BC#0000207F6A00B000
(1591150624.168561) can1 423#FFFFFFFF20000000
(1591150624.169581) can1 425#900000C00000B1C0
(1591150624.170606) can1 426#AA00000000008800
(1591150624.215573) can1 426#AA00000000008800
(1591150624.228717) can1 50C#270200
(1591150624.265432) can1 3B0#0D00000000000000
(1591150624.266532) can1 000#
(1591150624.266548) can1 3BC#0000207F6A00B000
(1591150624.267436) can1 40A#C00000B52759B700
(1591150624.268461) can1 423#FFFFFFFF20000000
(1591150624.269475) can1 425#900000C02000B1C0
(1591150624.270498) can1 426#AA00000000008800
(1591150624.315441) can1 426#AA00000000008800
(1591150624.330103) can1 527#3B1200
(1591150624.365582) can1 000#
(1591150624.365599) can1 3B0#0D00000000000000
(1591150624.366518) can1 3BC#0000207F6A00B000
(1591150624.367573) can1 423#FFFFFFFF20000000
(1591150624.368556) can1 425#900000C00000B1C0
(1591150624.369576) can1 426#AA00000000008800
(1591150624.411881) can1 125#0202000000000000
(1591150624.413332) can1 53B#010200
(1591150624.415559) can1 426#AA00000000008800
(1591150624.424697) can1 541#010100
(1591150624.465602) can1 083#000FFF7400007EC9
(1591150624.467496) can1 385#00EA02F219000000
(1591150624.469545) can1 3B0#0D00000000000000
(1591150624.471615) can1 3BC#0000207F6A00B000
(1591150624.473644) can1 3E0#0000000083C00000
(1591150624.477977) can1 10D#0000000000000000
(1591150624.478792) can1 40A#C100314654385733
(1591150624.479813) can1 423#FFFFFFFF20000000
(1591150624.480828) can1 425#900000C00000B1C0
(1591150624.481847) can1 426#AA00000000008800
(1591150624.482908) can1 42C#0000000000000000
(1591150624.485672) can1 3A0#1100800289240000
(1591150624.486686) can1 3D0#1C41000000000000
(1591150624.495412) can1 3B2#000000730000FE00
(1591150624.496713) can1 501#0C02000000000000
(1591150624.503156) can1 503#0B0100
(1591150624.505890) can1 10D#0000000000000000
(1591150624.506883) can1 3B3#0043050000000000
(1591150624.515653) can1 3C3#0000010001410B00
(1591150624.516501) can1 426#AA00000000008800
(1591150624.525659) can1 3C4#0034940000C0A4B0
(1591150624.535446) can1 3C6#0000000000000000
(1591150624.545599) can1 3D0#1C41000000000000
(1591150624.546619) can1 3E2#000000000000804E
(1591150624.565495) can1 3B0#0D00000000000000
(1591150624.566537) can1 3BC#0000207F6A00B000
(1591150624.567530) can1 423#FFFFFFFF20000000
(1591150624.568544) can1 425#900000C00000B1C0
(1591150624.569565) can1 426#AA00000000008800
(1591150624.588736) can1 50C#270200
(1591150624.601661) can1 000#
(1591150624.615587) can1 426#AA00000000008800
(1591150624.665479) can1 3B0#0D00000000000000
(1591150624.666487) can1 3BC#0000207F6A00B000
(1591150624.667444) can1 40A#C101425434424542
(1591150624.668468) can1 423#FFFFFFFF20000000
(1591150624.669482) can1 425#900000C00000B1C0
(1591150624.670509) can1 426#AA00000000008800
(1591150624.678055) can1 000#
(1591150624.678077) can1 527#3B1200
(1591150624.715714) can1 426#AA00000000008800
(1591150624.765745) can1 3B0#0D00000000000000
(1591150624.766582) can1 3BC#0000207F6A00B000
(1591150624.767626) can1 423#FFFFFFFF20000000
(1591150624.768640) can1 425#900000C00000B1C0
(1591150624.769668) can1 426#AA00000000008800
(1591150624.773519) can1 53B#410200
(1591150624.775455) can1 083#000FFF5400007EC9
(1591150624.815727) can1 426#AA00000000008800
(1591150624.864705) can1 541#010200
(1591150624.865695) can1 3B0#0D00000000000000
(1591150624.866728) can1 3BC#0000207F6A00B000
(1591150624.867704) can1 40A#C102343033323600
(1591150624.868726) can1 423#FFFFFFFF20000000
(1591150624.869793) can1 50B#0C0200
(1591150624.869814) can1 425#900000C00000B1C0
(1591150624.870764) can1 426#AA00000000008800
(1591150624.883038) can1 3EB#801E7080805000
(1591150624.885429) can1 083#000FFF7400007EC9
(1591150624.915479) can1 426#AA00000000008800
(1591150624.956476) can1 501#0302000000000000
(1591150624.976115) can1 000#
(1591150624.976140) can1 3B0#0D00000000000000
(1591150624.978080) can1 3BC#0000207F6A00B000
(1591150624.980094) can1 423#FFFFFFFF20000000
(1591150624.982125) can1 425#900000C00000B1C0
(1591150624.984154) can1 426#AA00000000008800
(1591150624.986320) can1 399#0000000001000000
(1591150625.015612) can1 426#AA00000000008800
(1591150625.028785) can1 50C#270400
(1591150625.047417) can1 503#0B0200
(1591150625.048794) can1 50C#0C0100
(1591150625.065522) can1 3B0#0D00000000000000
(1591150625.066536) can1 3BC#0000207F6A00B000
(1591150625.067525) can1 40A#C10401630A461101
(1591150625.068549) can1 423#FFFFFFFF20000000
(1591150625.069564) can1 425#900000C00000B1C0
(1591150625.070586) can1 426#AA00000000008800
(1591150625.115498) can1 426#AA00000000008800
(1591150625.118393) can1 000#
(1591150625.118416) can1 124#0202000000000000
(1591150625.119315) can1 35E#8000000000000000
(1591150625.120346) can1 3E7#0000000000000000
(1591150625.121304) can1 41A#00009860B8067590
(1591150625.165713) can1 3B0#0D00000000000000
(1591150625.166560) can1 3BC#0000207F6A00B000
(1591150625.167582) can1 423#FFFFFFFF20000000
(1591150625.168597) can1 425#900000C00000B1C0
(1591150625.169626) can1 426#AA00000000008810
(1591150625.215759) can1 426#AA00000000008800
(1591150625.228758) can1 50C#0B4200
(1591150625.230476) can1 527#3B1108
(1591150625.233465) can1 53B#410100
(1591150625.236475) can1 501#0301000000000000
(1591150625.244772) can1 541#010100
(1591150625.249026) can1 503#0B0100
(1591150625.265536) can1 3B0#0D00000000000000
(1591150625.266604) can1 3BC#0000207F6A00B000
(1591150625.267590) can1 40A#C110090822450000
(1591150625.268614) can1 423#FFFFFFFF20000000
(1591150625.269630) can1 425#900000C00000B1C0
(1591150625.270652) can1 426#AA00000000008800
(1591150625.315487) can1 426#AA00000000008800
(1591150625.365731) can1 3B0#0D00000000000000
(1591150625.366579) can1 3BC#0000207F6A00B000
(1591150625.367601) can1 423#FFFFFFFF20000000
(1591150625.368616) can1 425#900000C00000B1C0
(1591150625.369641) can1 426#AA00000000008800
(1591150625.415510) can1 426#AA00000000008800
(1591150625.428760) can1 50C#270200
(1591150625.465636) can1 083#000FFF7400007EC9
(1591150625.466508) can1 385#00EA02F219000000
(1591150625.467531) can1 3B0#0D00000000100000
(1591150625.468520) can1 3BC#0000207F6A00B100
(1591150625.469565) can1 3E0#0000000083C00000
(1591150625.470596) can1 3E2#000000000000804E
(1591150625.471596) can1 40A#C00000B52759C300
(1591150625.472619) can1 423#FFFFFFFF20000000
(1591150625.473631) can1 425#900000C00000B1C0
(1591150625.474667) can1 426#AA00000000008800
(1591150625.475725) can1 42C#0000000000000000
(1591150625.476739) can1 10D#0000000000000000
(1591150625.485792) can1 000#
(1591150625.485812) can1 3A0#1100800289240000
(1591150625.495473) can1 3B2#000000730000FE00
(1591150625.505839) can1 3B3#0043050000000000
(1591150625.515464) can1 3C3#0000010001410B00
(1591150625.516487) can1 426#AA00000000008800
(1591150625.517178) can1 000#
(1591150625.517195) can1 527#3B1200
(1591150625.525560) can1 3C4#0034940000C0A4B0
(1591150625.535561) can1 3C6#0800000000000000
(1591150625.545616) can1 3D0#1C41000000000000
(1591150625.565604) can1 3B0#0D00000000000000
(1591150625.566585) can1 3BC#0000207F6A00B100
(1591150625.567607) can1 423#FFFFFFFF20000000
(1591150625.568622) can1 425#900000C00000B1C0
(1591150625.569653) can1 426#AA00000000008800
(1591150625.613955) can1 53B#410200
(1591150625.615535) can1 426#AA00000000008800
(1591150625.665552) can1 3B0#0D00000000000000
(1591150625.666517) can1 3BC#0000207F6A00B100
(1591150625.667590) can1 000#
(1591150625.667606) can1 40A#C100314654385733
(1591150625.668526) can1 423#FFFFFFFF20000008
(1591150625.669538) can1 425#900000C00000B1C0
(1591150625.670565) can1 426#AA00000000008800
(1591150625.704708) can1 541#010200
(1591150625.715721) can1 426#AA00000000008800
(1591150625.765581) can1 3B0#0D00000000000000
(1591150625.766570) can1 3BC#0000207F6A00B100
(1591150625.767592) can1 423#FFFFFFFF20000000
(1591150625.768607) can1 425#900000C00000B1C0
(1591150625.769633) can1 426#AA00000000008800
(1591150625.796428) can1 501#0302000000000000
(1591150625.815538) can1 426#AA00000000008800
(1591150625.865725) can1 3B0#0D00000000000000
(1591150625.866713) can1 3BC#0000207F6A00B100
