\\RASPBERRYPI\PiShare\candump-2020-06-02_191322.log
// 2011 Ford F350 KR 4x4
// Medium Speed CAN Bus
// KOES, HVAC, Driver Seat, Pass Seat

// Ignition off
(1591150402.070592) can1 3B0#0D00000000000000 // Key inserted
(1591150402.071567) can1 3BC#0000327F6A009000
(1591150402.072587) can1 423#2710000028000000
(1591150402.073578) can1 425#980000E00080B2D0
(1591150402.074594) can1 426#AA00000000005800
(1591150402.120682) can1 426#AA00000000005800
(1591150402.123522) can1 53B#3B0100
(1591150402.124133) can1 503#030100
(1591150402.124735) can1 541#410100
(1591150402.130307) can1 50C#0C0100
(1591150402.141748) can1 501#0101400000020000
(1591150402.147725) can1 527#270100
(1591150402.170571) can1 3B0#0D00000000000000
(1591150402.171572) can1 3BC#0000327F6B009000
(1591150402.172556) can1 40A#C102343033323600
(1591150402.173571) can1 423#2710000028000000
(1591150402.174565) can1 425#980000E00080B2D0
(1591150402.175592) can1 426#AA00000000005800
(1591150402.220537) can1 426#AA00000000005800
(1591150402.223239) can1 53B#412200
(1591150402.270598) can1 3B0#0D00000000000000
(1591150402.271588) can1 3BC#0000327F6A009000
(1591150402.272602) can1 423#2710000028000000
(1591150402.273593) can1 425#980008E00080F2D0
(1591150402.274609) can1 426#AA00000000005800
(1591150402.304676) can1 541#010200
(1591150402.320582) can1 53B#3B0100
(1591150402.320603) can1 426#AA00000000005800
(1591150402.360636) can1 3D0#1C41000000000000
(1591150402.370578) can1 083#000FFF7400007EBE
(1591150402.371626) can1 000#
(1591150402.371649) can1 385#00EA02F219000000
(1591150402.371842) can1 000#
(1591150402.372567) can1 3B0#0D00000000000000
(1591150402.373549) can1 3BC#0000327F6A009100
(1591150402.374583) can1 3E0#0000000083C0032D
(1591150402.375615) can1 3E2#000000000000804A
(1591150402.376603) can1 40A#C10401630A461101
(1591150402.377619) can1 423#2710000028000000
(1591150402.378610) can1 425#980000E00080B2D0
(1591150402.379713) can1 426#AA00000000005800
(1591150402.380686) can1 42C#0000000000000000
(1591150402.381710) can1 10D#0000000000000000
(1591150402.390928) can1 3A0#1100800289240010
(1591150402.400473) can1 3B2#08010C4E4000FE00
(1591150402.401790) can1 501#2702000000000000
(1591150402.406182) can1 503#0C0100
(1591150402.410031) can1 50C#270100
(1591150402.411006) can1 3B3#0043250000010000
(1591150402.412093) can1 3E0#000000008000032E
(1591150402.420503) can1 3C3#0000010001410B00
(1591150402.421529) can1 426#AA00000000005800
(1591150402.430572) can1 3C4#0034940100C1A4B8
(1591150402.440604) can1 3C6#0000000000000000
(1591150402.450637) can1 3D0#1C41000000000000
(1591150402.470807) can1 3B0#0D00000000000000
(1591150402.471786) can1 3BC#0000327F6A009100
(1591150402.472836) can1 423#2710000028000000
(1591150402.473793) can1 425#980000E00080B2D0
(1591150402.474809) can1 426#AA00000000005800
(1591150402.495596) can1 527#3B1200
(1591150402.520591) can1 426#AA00000000005800
(1591150402.543014) can1 3EB#809E7080805000
(1591150402.570577) can1 3B0#0D00000000000000
(1591150402.571557) can1 3BC#0000327F6B009100
(1591150402.572547) can1 40A#C110090822450000
(1591150402.573570) can1 423#2710000028000000
(1591150402.574564) can1 425#980000E00080B2D0
(1591150402.575579) can1 426#AA00000000005800
(1591150402.583552) can1 53B#411200
(1591150402.637273) can1 426#AA00000000005800
(1591150402.658585) can1 124#0202000000000010
(1591150402.659501) can1 35E#8000000000000000
(1591150402.660572) can1 3E7#0000000000000000
(1591150402.661589) can1 41A#00009860B7067590
(1591150402.664636) can1 541#011200
(1591150402.670651) can1 3B0#0D00000000000000
(1591150402.671643) can1 3BC#0000327F6A009100
(1591150402.672664) can1 423#2710000028000000
(1591150402.673668) can1 425#980000E00080B2D0
(1591150402.674682) can1 426#AA00000000005800
(1591150402.690055) can1 50C#270400
(1591150402.720574) can1 426#AA00000100005800
(1591150402.741067) can1 125#0202000000000000
(1591150402.762788) can1 501#0302000000000000
(1591150402.771052) can1 3B0#0D00000000000000
(1591150402.772706) can1 3BC#0000327F6A009100
(1591150402.773733) can1 40A#C00000B527510F00
(1591150402.775574) can1 423#2710000028000000
(1591150402.778365) can1 426#AA00000000005800
(1591150402.779621) can1 50C##00C0101
(1591150402.821313) can1 426#AA00000000005800
(1591150402.849808) can1 503#0C1200
(1591150402.870825) can1 3B0#0D00000000000000
(1591150402.871707) can1 3BC#0000327F6A009100
(1591150402.872829) can1 000#
(1591150402.872851) can1 423#2710000028000000
(1591150402.873712) can1 425#980000E00080B2D0
(1591150402.874738) can1 426#AA00000000005800
(1591150402.920705) can1 426#AA00000000005800
(1591150402.950055) can1 50C#030200
(1591150402.961575) can1 501#0301000000000000
(1591150402.963749) can1 53B#411100
(1591150402.964661) can1 541#011100
(1591150402.966270) can1 527#3B1100
(1591150402.970824) can1 3B0#0D00000000000000
(1591150402.971815) can1 3BC#0004327F6A209100
(1591150402.972790) can1 40A#C1003146D4385733
(1591150402.973805) can1 423#2710000028000000
(1591150402.974797) can1 425#980000E00080B2D0
(1591150402.975812) can1 426#AA00000000005800
(1591150403.020574) can1 426#AA00000000005800
(1591150403.051260) can1 503#0B1200
(1591150403.070640) can1 3B0#0D00000000000000
(1591150403.071619) can1 3BC#0000327F6A009100
(1591150403.072634) can1 423#2710000028000000
(1591150403.073632) can1 425#980000E00080B2D0
(1591150403.074650) can1 426#AA00000000005800
(1591150403.120588) can1 426#AA00000000005800
(1591150403.170706) can1 3B0#0D00000000000000
(1591150403.171587) can1 3BC#0000327F6B009100
(1591150403.172552) can1 40A#C101425434424542
(1591150403.173573) can1 423#2710000028000000
(1591150403.174586) can1 425#980000E00080B2D0
(1591150403.175593) can1 426#AA00000000005800
(1591150403.220610) can1 426#AA00000000005800
(1591150403.230347) can1 50C#270200
(1591150403.270787) can1 3B0#0D00000000000000
(1591150403.271846) can1 000#
(1591150403.271867) can1 3BC#0000327F6B009100
(1591150403.272751) can1 423#2710000028000000
(1591150403.273742) can1 425#980000E00080B2D0
(1591150403.274759) can1 426#AA00000000005800
(1591150403.314067) can1 527#3B1200
(1591150403.320668) can1 426#AA00000000005800
(1591150403.370697) can1 083#000FFF7400007EBE
(1591150403.371658) can1 385#00EA02F219000000
(1591150403.372688) can1 3B0#0D00000000000000
(1591150403.373670) can1 3BC#0000327F6A009200
(1591150403.374703) can1 3E0#0000000083C0032E
(1591150403.375735) can1 3E2#000000000000804A
(1591150403.376725) can1 40A#C102343033323600
(1591150403.377739) can1 423#2710000028000000
(1591150403.378729) can1 425#980000E00080B2D0
(1591150403.379745) can1 426#AA00000000005840
(1591150403.380794) can1 10D#0000000000000000
(1591150403.381860) can1 42C#0000000000000000
(1591150403.390993) can1 3A0#1100800289240000
(1591150403.400601) can1 3B2#80010C4E4000FE00
(1591150403.403927) can1 53B#411200
(1591150403.410695) can1 3B3#0043050000000000
(1591150403.411740) can1 3E0#000000008000032F
(1591150403.420577) can1 3C3#0000010001410B00
(1591150403.421597) can1 426#AA00000000005800
(1591150403.430630) can1 3C4#0034940100C1A4B8
(1591150403.440623) can1 3C6#0000000000000000
(1591150403.450647) can1 3D0#1C41000000000000
(1591150403.470840) can1 3B0#0D00000000000010
(1591150403.471821) can1 3BC#0000327F6A009200
(1591150403.472832) can1 423#2710000028000000
(1591150403.473872) can1 425#980000E00088B2D0
(1591150403.474849) can1 426#AA00000000005800
(1591150403.484710) can1 541#011200
(1591150403.520612) can1 426#AA00000000005800
(1591150403.542973) can1 3EB#809E7081805000
(1591150403.570644) can1 3B0#0D00000000000000
(1591150403.571618) can1 3BC#0000327F6A009200
(1591150403.572617) can1 40A#C10401630A461101
(1591150403.573631) can1 423#2710000028000000
(1591150403.574626) can1 425#980000E00080B2D0
(1591150403.575639) can1 426#AA00000000005800
(1591150403.581726) can1 501#0302000000000000
(1591150403.642123) can1 426#AA00000000005800
(1591150403.657654) can1 399#0000000000000000
(1591150403.660905) can1 3B2#00010C4F4000FE00
(1591150403.666436) can1 124#0202000000000000
(1591150403.668468) can1 3E7#0000000000000000
(1591150403.669445) can1 41A#00009860B7067590
(1591150403.670854) can1 3B0#0D00000000000000
(1591150403.671835) can1 3BC#0000327F6A009200
(1591150403.672866) can1 423#2710000028000000
(1591150403.673900) can1 425#980000E00080B2D0
(1591150403.674892) can1 426#AA00000000005800
(1591150403.676312) can1 503#0B1200
(1591150403.690105) can1 50C#270400
(1591150403.720769) can1 426#AA00000000005800
(1591150403.730469) can1 50C#0C0100
(1591150403.764250) can1 125#0202000000000000
(1591150403.770662) can1 3B0#0D00000000000000
(1591150403.771628) can1 3B2#00010C4E4000FE00
(1591150403.772619) can1 3BC#0000327F6A009200
(1591150403.773611) can1 40A#C110090822450000
(1591150403.774640) can1 423#2710000028000000
(1591150403.775624) can1 425#980000E00080B2D0
(1591150403.776636) can1 426#AA00000000005800
(1591150403.820632) can1 426#AA00000000005800
(1591150403.830370) can1 50C#0B0200
(1591150403.837449) can1 503#0B1100
(1591150403.842011) can1 501#0301000000020000
(1591150403.844131) can1 53B#411100
(1591150403.844748) can1 541#011100
(1591150403.846119) can1 527#3B1100
(1591150403.870704) can1 3B0#0D00000000000000
(1591150403.871713) can1 3BC#0000327F6A009200
(1591150403.872698) can1 423#2710000028000000
(1591150403.873694) can1 425#980000E00080B2D0
(1591150403.874709) can1 426#AA00000000005800
(1591150403.920808) can1 426#AA00000000005800
(1591150403.970891) can1 3B0#0D00000000000000
(1591150403.971839) can1 3BC#0000327F6A009200
(1591150403.972821) can1 40A#C00000B527511B00
(1591150403.973880) can1 423#2710002028000100
(1591150403.974822) can1 425#980000E00080B2D0
(1591150403.975838) can1 426#AA00000000005800
(1591150404.010085) can1 50C#270200
(1591150404.020646) can1 426#AA00000000005800
(1591150404.020816) can1 000#
(1591150404.070926) can1 3B0#0D00000000000000
(1591150404.071845) can1 3BC#0000327F6A009200
(1591150404.072860) can1 423#2710000028000000
(1591150404.073892) can1 425#980000E00080B2D0
(1591150404.074866) can1 426#AA00000000005800
(1591150404.112066) can1 527#3B1200
(1591150404.120743) can1 426#AA00000000005800
(1591150404.170677) can1 3B0#0D00000000200000
(1591150404.171657) can1 3BC#0000327F6A009200
(1591150404.172631) can1 40A#C100314654385733
(1591150404.173659) can1 423#2710000028000000
(1591150404.174647) can1 425#980100E00080B2D0
(1591150404.175654) can1 426#AA00000000005800
(1591150404.204236) can1 53B#411200
(1591150404.220735) can1 426#AA00000000005800
(1591150404.221659) can1 41A#00009860B8067590
(1591150404.270773) can1 3B0#0D00000000000000
(1591150404.271749) can1 3BC#0000327F6A009200
(1591150404.272762) can1 423#2710000028000000
(1591150404.273754) can1 425#980000E00080B2D0
(1591150404.274770) can1 426#AA00000000005800
(1591150404.304676) can1 541#011200
(1591150404.320766) can1 426#AA00000000005800
(1591150404.370674) can1 083#000FFF7400007EBE
(1591150404.371638) can1 385#00EA02F219000000
(1591150404.372661) can1 3B0#0D00000000000000
(1591150404.373652) can1 3BC#0000327F6A009300
(1591150404.374693) can1 3E0#0000000083C0032F
(1591150404.375726) can1 3E2#000000000000804A
(1591150404.376681) can1 40A#C101425434424542
(1591150404.377695) can1 423#2710000028000000
(1591150404.378687) can1 425#980000E00080B2D0
(1591150404.379702) can1 426#AA00000000005800
(1591150404.380768) can1 42C#0000000000000000
(1591150404.381788) can1 10D#0000000000000000
(1591150404.391159) can1 000#
(1591150404.391181) can1 3A0#1100800289240000
(1591150404.400724) can1 3B2#00010C4E4000FE00
(1591150404.402115) can1 501#0302000000000000
(1591150404.410756) can1 3B3#0043050000000000
(1591150404.411802) can1 3E0#0000000080000330
(1591150404.420730) can1 3C3#0000010001410B00
(1591150404.421743) can1 426#AA00000000005800
(1591150404.430788) can1 3C4#0034940100C1A4B8
(1591150404.440823) can1 3C6#0000000000000000
(1591150404.450764) can1 3D4#1C41000000000000
(1591150404.470957) can1 3B0#0D00000000000000
(1591150404.471944) can1 3BC#0000327F6A009300
(1591150404.472968) can1 463#2710000028000000
(1591150404.473998) can1 425#980000E00080B2D0
(1591150404.474971) can1 426#AA00000000005800
(1591150404.502713) can1 503#0B1200
(1591150404.520740) can1 426#AA00000000005800
(1591150404.542997) can1 3EB#809E7080805000
(1591150404.570758) can1 3B0#0D00000000000000
(1591150404.571742) can1 3BC#0000327F6A009300
(1591150404.572724) can1 40A#C102343033323600
(1591150404.573740) can1 423#2712000028000000
(1591150404.574731) can1 425#980000E00080B2D0
(1591150404.575776) can1 426#AA00000000005800
(1591150404.637273) can1 426#AA00000000005800
(1591150404.646783) can1 000#
(1591150404.648980) can1 000#
(1591150404.653399) can1 3EA#0000008400000000
(1591150404.654640) can1 3EA##00000018400000800
(1591150404.660139) can1 3EA#0000008400000000
(1591150404.662348) can1 3EA#0000008400000000
(1591150404.670849) can1 3B0#0D00000000000000
(1591150404.671832) can1 3BC#R8
(1591150404.672854) can1 423#2710000028000000
(1591150404.673905) can1 425#980000E00080B2D0
(1591150404.674857) can1 124#0202000000000000
(1591150404.675821) can1 426#AA00000000005800
(1591150404.676795) can1 35E#8000000000000000
(1591150404.677871) can1 3E7#0000000000000000
(1591150404.678785) can1 41A#00009860B8067590
(1591150404.690151) can1 50C#270400
(1591150404.710268) can1 50C#0C0100
(1591150404.720950) can1 426#AA00000000005800
(1591150404.764522) can1 53B#3B0100
(1591150404.765139) can1 503#030100
(1591150404.765849) can1 000#
(1591150404.765871) can1 541#410100
(1591150404.770801) can1 3B0#0D00000000000000
(1591150404.771791) can1 3BC#0000327F6A009300
(1591150404.772781) can1 40A#C10401630A461101
(1591150404.773797) can1 423#2710000028000000
(1591150404.774782) can1 425#980000E00080B2D0
(1591150404.775791) can1 426#AA00000000005800
(1591150404.781957) can1 501#0101000000000000
(1591150404.787232) can1 125#0202000000000000
(1591150404.787861) can1 527#270100
(1591150404.821114) can1 000#
(1591150404.821139) can1 426#AA00000000005800
(1591150404.870890) can1 3B0#0D00000000000000
(1591150404.871887) can1 3BC#0000327F6A009300
(1591150404.872890) can1 423#2710000028000000
(1591150404.873951) can1 425#980000E00080B2D0
(1591150404.874906) can1 426#AA00000000005800
(1591150404.890123) can1 50C#270200
(1591150404.920910) can1 426#AA00000000005800
(1591150404.970923) can1 3B0#0D00000000000000
(1591150404.971909) can1 3BC#0000327F6A009300
(1591150404.972896) can1 40A#C110090822450000
(1591150404.973966) can1 423#2710000028000000
(1591150404.974913) can1 425#980000E00080B2D0
(1591150404.975931) can1 426#AA00000000005800
(1591150404.991888) can1 527#0B1200
(1591150405.001952) can1 501#0B01000000000000
(1591150405.004471) can1 53B#411100
(1591150405.005076) can1 541#011100
(1591150405.006701) can1 503#0B1100
(1591150405.020732) can1 426#AA00000000005800
(1591150405.070779) can1 3B0#0D00000000000000
(1591150405.071764) can1 3BC#0000327F6B009300
(1591150405.072778) can1 423#3710000028000000
(1591150405.073770) can1 425#980000E00080B2D0
(1591150405.074785) can1 426#AA00000000005800
(1591150405.120818) can1 426#AA00000000005800
(1591150405.170773) can1 3B0#0D00000000000000
(1591150405.171755) can1 3BC#0000327F6A009300
(1591150405.172737) can1 40A#C00000B527512700
(1591150405.173756) can1 423#2710000028000000
(1591150405.174752) can1 425#980000E00180B2D0
(1591150405.175766) can1 426#AA00000000005800
(1591150405.190280) can1 50C#270200
(1591150405.220822) can1 426#AA00000000005800
(1591150405.270805) can1 3B0#0D00000000000000
(1591150405.271783) can1 3BC#0000327F6A009300
(1591150405.272812) can1 423#2710000028000000
(1591150405.273802) can1 425#980000E00080B2D0
(1591150405.274819) can1 426#AA00000000005800
(1591150405.278406) can1 527#3B1200
(1591150405.320860) can1 426#AA00000000005800
(1591150405.364555) can1 73B#451200
(1591150405.370766) can1 083#000FFF7400007EBE
(1591150405.371726) can1 385#00EA02F219000000
(1591150405.372748) can1 3B0#0D00000000000000
(1591150405.373739) can1 3BC#0000327F6A009400
(1591150405.374779) can1 3E0#0004000083E00330
(1591150405.375810) can1 3E2#000000000000804A
(1591150405.376809) can1 40A#C100314654385733
(1591150405.377903) can1 423#2710000028000002
(1591150405.378851) can1 425#980000E00080B2D0
(1591150405.379864) can1 426#AA00000000005800
(1591150405.380907) can1 10D#0000000000000000
(1591150405.381984) can1 42C#0000000000000000
(1591150405.391159) can1 3A0#1100800289240000
(1591150405.400733) can1 3B2#00010C4E4000FE00
(1591150405.410833) can1 3B3#0043050000000000
(1591150405.411869) can1 3E0#0000000080000331
(1591150405.420711) can1 3C3#0000010001410B00
(1591150405.421723) can1 10980000#AA00000000005900
(1591150405.430765) can1 3C4#0034940100C1A4B8
(1591150405.440732) can1 3C6#0000000000000000
(1591150405.450798) can1 3D0#1C41000000000000
(1591150405.464799) can1 541#011200
(1591150405.470980) can1 3B0#0D00400000020000
(1591150405.471967) can1 3BC#0000327F6A009400
(1591150405.472983) can1 423#2710000028000000
(1591150405.473981) can1 425#980000E00080B2D0
(1591150405.474990) can1 426#AA00000000005800
(1591150405.520754) can1 426#AA00000000005800
(1591150405.543076) can1 3EB#809E7080805000
(1591150405.561691) can1 501#0302000000000000
(1591150405.570835) can1 3B0#0D00000000000000
(1591150405.571855) can1 3BC#0000327F6A009400
(1591150405.572814) can1 40A#C901425434424542
(1591150405.573874) can1 423#2710000028000000
(1591150405.574824) can1 425#980000E00080B2D0
(1591150405.575838) can1 426#AA00000000005800
(1591150405.630893) can1 000#
(1591150405.652858) can1 503#0B1200
(1591150405.653801) can1 3EA#0000008400000000
(1591150405.660603) can1 3EA#0008008400400000
(1591150405.662806) can1 3FA#0000008400000000
(1591150405.670846) can1 3B0#0D00000000000000
(1591150405.671879) can1 0EF00000#0000207F6A009400
(1591150405.672926) can1 423#2710000020000000
(1591150405.674002) can1 425#900000C00000B2C0
(1591150405.674979) can1 426#AA00000000005800
(1591150405.682377) can1 124#0202000000000000
(1591150405.683384) can1 35E#8000000000000000
(1591150405.685372) can1 41A#00009860B8067590
(1591150405.690181) can1 50C#270400
(1591150405.720833) can1 426#AA00000000085800
(1591150405.750346) can1 50C#0C0100
(1591150405.770802) can1 3B0#0D00000000000000
(1591150405.771799) can1 3BC#0000207F6A009400
(1591150405.772773) can1 40A#C102343033323600
(1591150405.773804) can1 423##02710000020000000
(1591150405.774812) can1 425#900000C00000B2C0
(1591150405.775826) can1 426#AA00000000005800
(1591150405.810320) can1 125#0202000000000000
(1591150405.820764) can1 426#AA00000000005800
(1591150405.850162) can1 50C#0C0200
(1591150405.871009) can1 3B0#0D00000000000000
(1591150405.871860) can1 3BC#0000207F6A009400
(1591150405.872889) can1 423#2710000020000000
(1591150405.873953) can1 425#900000C00000B2C0
(1591150405.874913) can1 426#AA00000000005800
(1591150405.920883) can1 000#
(1591150405.920905) can1 426#AA00000000005800
(1591150405.933158) can1 527#3B1200
(1591150405.970979) can1 3B0#0D00000000000000
(1591150405.972015) can1 3BC#0000207F6A009400
(1591150405.974046) can1 423#2710000020000000
(1591150405.975057) can1 425#900000C00000B2C0
(1591150405.976066) can1 426#AA00000000005800
(1591150406.020877) can1 426#AA00000000005800
(1591150406.024852) can1 53B#411200
(1591150406.070873) can1 3B0#0D00000000000000
(1591150406.071911) can1 3BC#0000207F6A009400
(1591150406.072938) can1 423#2710000020000000
(1591150406.073976) can1 425#908000C00400B2C0
(1591150406.074963) can1 426#AA00000000005800
(1591150406.120848) can1 426#AA00000000005800
(1591150406.124777) can1 541#011200
(1591150406.170886) can1 3B0#0D00000000000000
(1591150406.171135) can1 000#
(1591150406.171834) can1 3BC#0000287F6A009400
(1591150406.172819) can1 40A#C110090822450000
(1591150406.173905) can1 423#2710000020000000
(1591150406.174878) can1 425#900000C00000B2C0
(1591150406.175891) can1 426#AA00000000005800
(1591150406.220774) can1 426#AA00000000005800
(1591150406.221812) can1 501#0302000000000000
(1591150406.270905) can1 3B0#0D00000000000000
(1591150406.271893) can1 3BC#0000207F6A009400
(1591150406.272955) can1 423#2710000020000000
(1591150406.273976) can1 425#900000C00000B2C0
(1591150406.274948) can1 426#AA00000000005800
(1591150406.317058) can1 503#0B1200
(1591150406.320799) can1 426#AA00000000005800
(1591150406.370864) can1 083#000FFF7400007EBE
(1591150406.371818) can1 385#00EA02F219000000
(1591150406.372844) can1 3B0#0D00000000000000
(1591150406.373942) can1 3BC#0000207F6A009500
(1591150406.374909) can1 3E0#0000000083C00331
(1591150406.375940) can1 3E2#000000000000804A
(1591150406.376964) can1 40A#C00000B527513300
(1591150406.377961) can1 423#2710000020000000
(1591150406.378968) can1 425#900000C00000B2C0
(1591150406.379984) can1 426#AA00000000005800
(1591150406.380999) can1 10D#0000000000000000
(1591150406.382067) can1 42C#0000000000000000
(1591150406.391295) can1 3A0#1100800289240000
(1591150406.400791) can1 3B2#00010C4E4000FE00
(1591150406.411154) can1 3B3#0043050000000000
(1591150406.412026) can1 3E0#0000000080000332
(1591150406.420797) can1 3C3#0000010001410B00
(1591150406.421806) can1 426#AA00000040005802
(1591150406.430902) can1 3C4#0034940100C1A4B8
(1591150406.440861) can1 3C6#0000000000000000
(1591150406.450838) can1 3D0#1C41000000000000
(1591150406.471054) can1 3B0#0D00000000000000
(1591150406.472047) can1 3BC#0000207F6A009500
(1591150406.473094) can1 423#2710000020000000
(1591150406.474090) can1 425#900000C00000B2C0
(1591150406.475104) can1 426#AA00000000005800
(1591150406.490183) can1 50C#270200
(1591150406.520875) can1 426#AA00000000005800
(1591150406.543041) can1 3EB#809E7080805000
(1591150406.570902) can1 3B0#0D00000000000000
(1591150406.571840) can1 3BC#0000207F6A009500
(1591150406.572810) can1 40A#C100314654385733
(1591150406.573904) can1 423#2710000020000000
(1591150406.574869) can1 425#900000C00000B2C0
(1591150406.575879) can1 426#AA00000000005800
(1591150406.587923) can1 527#3B1200
(1591150406.631145) can1 000#
(1591150406.637390) can1 426#AA00000000005800
(1591150406.649743) can1 000#
(1591150406.649764) can1 399#0000000000000000
(1591150406.671237) can1 3B0#0D00000000000000
(1591150406.673168) can1 423#2710000020000000
(1591150406.674197) can1 425#900000C00000B2C0
(1591150406.675225) can1 426#AA00000000005800
(1591150406.685165) can1 53B#411200
(1591150406.690351) can1 125#0202000000000000
(1591150406.690957) can1 50C#270400
(1591150406.691938) can1 35E#8000000000000000
(1591150406.692970) can1 3E7#0000000000000000
(1591150406.693959) can1 41A#00009860B8067590
(1591150406.710194) can1 50C#0C0100
(1591150406.720846) can1 426#AA00000000005800
(1591150406.740725) can1 41A#00009860B7067590
(1591150406.770961) can1 3B0#0D00000000000000
(1591150406.771955) can1 3BC#0000207F6A009500
(1591150406.772933) can1 40A#C101425434424542
(1591150406.774011) can1 423#2710000020000000
(1591150406.774954) can1 425#900000C00000B2C0
(1591150406.776062) can1 426#AA00000000005800
(1591150406.784789) can1 541#011200
(1591150406.820902) can1 426#AA00000000005800
(1591150406.833390) can1 125#0202000000000000
(1591150406.841629) can1 000#
(1591150406.841646) can1 41A#00009860B8067590
(1591150406.870950) can1 3B0#0D00000000000000
(1591150406.871982) can1 3BC#0000207F6A009500
(1591150406.872978) can1 423#2710000020000000
(1591150406.874078) can1 000#
(1591150406.874094) can1 425#900000C00000B2C0
(1591150406.875002) can1 426#AA00000000005800
(1591150406.881841) can1 501#0302000000000000
(1591150406.920908) can1 426#AA00000000005800
(1591150406.971051) can1 3B0#0D00000000000000
(1591150406.972027) can1 3BC#0000207F6A009500
(1591150406.973000) can1 40A#C102343033323600
(1591150406.974035) can1 423#2710000020000000
(1591150406.975037) can1 425#900000C00000B2C0
(1591150406.976052) can1 426#AA00400000005800
(1591150406.982398) can1 503#0B1200
(1591150407.020834) can1 426#AA00000000005800
(1591150407.070903) can1 3B0#0D00000000000000
(1591150407.071889) can1 3BC#0000207F6A009700
(1591150407.072918) can1 423#2710000020000000
(1591150407.073953) can1 425#900000C00000B2C0
(1591150407.074940) can1 426#AA00000000005800
(1591150407.120986) can1 426#AA00000000005800
(1591150407.170250) can1 50C#410200
(1591150407.171245) can1 3B0#0D00000000000000
(1591150407.172221) can1 3BC#0000207F6A009500
(1591150407.173215) can1 40A#C10401630A461101
(1591150407.174240) can1 423#2710000020000000
(1591150407.175259) can1 425#900000C00000B2C0
(1591150407.176263) can1 426#AA00000000005800
(1591150407.181338) can1 527#3B1100
(1591150407.185367) can1 53B#411100
(1591150407.220866) can1 426#AA00000000005800
(1591150407.221087) can1 000#
(1591150407.264798) can1 541#011200
(1591150407.271018) can1 3B0#0D00000000000000
(1591150407.272008) can1 3BC#0000207F6A009500
(1591150407.273039) can1 423#2710000020000000
(1591150407.274159) can1 000#
(1591150407.274176) can1 425#900000C00000B2C0
(1591150407.275063) can1 426#AA00000000005800
(1591150407.320932) can1 426#AA00000000005800
(1591150407.362411) can1 501#0302000000000000
(1591150407.370885) can1 083#000FFF7400007EBE
(1591150407.371888) can1 385#00EA02F219000000
(1591150407.372871) can1 3B0#0D00000000000000
(1591150407.373981) can1 000#
(1591150407.373999) can1 3BC#0000207F6A009600
(1591150407.374893) can1 3D0#1C41000000000000
(1591150407.375923) can1 3E0#0000000083C00332
(1591150407.376954) can1 3E2#000000000000804A
(1591150407.377945) can1 40A#C110090822450000
(1591150407.378976) can1 423#2710000020000000
(1591150407.379983) can1 425#900000C00000B2C0
(1591150407.384314) can1 10D#0000000000000000
(1591150407.385179) can1 426#AA00000000005800
(1591150407.386242) can1 42C#0000000000000000
(1591150407.391282) can1 3A0#1100800289240000
(1591150407.400990) can1 3B2#0000004E0000FE00
(1591150407.410966) can1 3B3#0043050000000000
(1591150407.411985) can1 3E0#0000000080000333
(1591150407.420849) can1 3C3#8000010401410B00
(1591150407.421863) can1 426#AA00000000005800
(1591150407.430937) can1 3C4#0034940000C0A4B0
(1591150407.440912) can1 3C6#0000000000000000
(1591150407.445998) can1 503#0B1200
(1591150407.451131) can1 3D0#1C41000000000000
(1591150407.471120) can1 3B0#0D00000000000000
(1591150407.471382) can1 000#
(1591150407.472128) can1 3BC#0000207F6A009600
(1591150407.473148) can1 423#2710000020000000
(1591150407.474159) can1 425#900000C00000B2C0
(1591150407.475169) can1 426#AA00000000005800
(1591150407.520956) can1 426#AA00000000005800
(1591150407.543186) can1 3EB#809E7080805000
(1591150407.570963) can1 3B0#0D00000000000000
(1591150407.571991) can1 3BC#0000207F6A009600
(1591150407.572990) can1 40A#C01000B527513F00
(1591150407.574022) can1 423#2710000020000000
(1591150407.575057) can1 425#900000C00000B2C0
(1591150407.576042) can1 426#AA00000000005800
(1591150407.637391) can1 426#AA00000000005800
(1591150407.644108) can1 399#0200000000000000
(1591150407.671131) can1 3B0#0D00000000000000
(1591150407.672027) can1 3BC#0000207F6A009600
(1591150407.673073) can1 423#2710000020000000
(1591150407.674101) can1 425#900000C00000B2C0
(1591150407.675130) can1 426#AA00000000005800
(1591150407.690283) can1 50C#271400
(1591150407.698621) can1 124#0202000000000000
(1591150407.700261) can1 35E#8000000000000000
(1591150407.700907) can1 000#
(1591150407.701915) can1 3E7#0000000000000000
(1591150407.703531) can1 41A#00009860B8067590
(1591150407.708296) can1 503#030100
(1591150407.710257) can1 50C#0C0100
(1591150407.713409) can1 000#
(1591150407.713425) can1 527#270100
(1591150407.720961) can1 426#AA00000000005800
(1591150407.722004) can1 501#0101000000000000
(1591150407.724748) can1 541#410100
(1591150407.725346) can1 53B#3B0100
(1591150407.748699) can1 41A#00009860B7067590
(1591150407.770928) can1 3B0#0D00000000000000
(1591150407.771921) can1 3BC#0000207F6A009600
(1591150407.772896) can1 60A#C500314654385733
(1591150407.773961) can1 423#2710000020000000
(1591150407.774937) can1 425#900000C00000B2C0
(1591150407.775950) can1 426#AA00000000005800
(1591150407.821032) can1 426#AA00001000005800
(1591150407.849494) can1 41A#00009860B8067590
(1591150407.856474) can1 125#0202000000000000
(1591150407.870981) can1 3B0#0D00000000000000
(1591150407.871974) can1 3BC#0000207F6A009600
(1591150407.873005) can1 423#2710000020000000
(1591150407.874010) can1 425#900000C00000B2C0
(1591150407.875029) can1 426#AA00000000005800
(1591150407.890234) can1 50C#279200
(1591150407.920920) can1 426#AA00000000005800
(1591150407.971218) can1 3B0#0D00000000000000
(1591150407.972219) can1 3BC#0000207F6A009600
(1591150407.973182) can1 40A#C101425434424542
(1591150407.974209) can1 423#2710000020000000
(1591150407.975216) can1 425#900000C00000B2C0
(1591150407.976325) can1 426#AA00000000005800
(1591150407.979322) can1 527#3B1200
(1591150408.020948) can1 426#AA00000000005800
(1591150408.065807) can1 53B#411200
(1591150408.070989) can1 3B0#0D00000000000000
(1591150408.071977) can1 3BC#0000207F6A009600
(1591150408.073012) can1 423#2710000020000000
(1591150408.074020) can1 425#900000C00000B2C0
(1591150408.075034) can1 426#AA00000000005800
(1591150408.120997) can1 426#AA00000000005800
(1591150408.164823) can1 541#0B1200
(1591150408.170944) can1 3B0#0D00002000000100
(1591150408.171940) can1 3BC#0000207F6A009600
(1591150408.172529) can1 503#0B1100
(1591150408.173459) can1 40A#C102343033323600
(1591150408.174517) can1 423#2710000020000000
(1591150408.175495) can1 425#900000C00000B2C0
(1591150408.181752) can1 501#0301000000000000
(1591150408.220947) can1 426#AA00000000005800
(1591150408.271088) can1 3B0#0D00000000000000
(1591150408.271983) can1 3BC#0000207F6A009600
(1591150408.273035) can1 423#2710000020000000
(1591150408.274053) can1 425#900000C00000B2C0
(1591150408.275044) can1 426#AA00000000005800
(1591150408.320980) can1 426#AA00000000005800
(1591150408.350259) can1 50C#271240
(1591150408.370917) can1 083#000FFF7400007EBE
(1591150408.371882) can1 385#00EA02F219000000
(1591150408.372904) can1 3B0#0D00000000000000
(1591150408.373945) can1 3BC#0000207F6A009600
(1591150408.374943) can1 3E0#0000000083C00333
(1591150408.376056) can1 000#
(1591150408.376073) can1 3E2#000000000000804A
(1591150408.376967) can1 40A#C10401630A461101
(1591150408.378081) can1 000#
(1591150408.378098) can1 423#2710000020000000
(1591150408.379003) can1 425#900000C00000B2C0
(1591150408.380103) can1 000#
(1591150408.380120) can1 426#AA00000000005800
(1591150408.381081) can1 42C#0000000000000000
(1591150408.382097) can1 10D#0000000000000000
(1591150408.391341) can1 3A0#1100800289240000
(1591150408.400901) can1 3B2#0000004E0000FE00
(1591150408.411063) can1 3B3#0043050000000000
(1591150408.412089) can1 3E0#0000000080000334
(1591150408.420931) can1 3C3#0000010081410B04
(1591150408.421960) can1 426#AA00002000005800
(1591150408.431127) can1 000#
(1591150408.431149) can1 3C4#0034940000C0A4B0
(1591150408.441073) can1 3C6#0010000000800000
(1591150408.449959) can1 527#3B1200
(1591150408.451022) can1 3D0#1C41000000000000
(1591150408.471187) can1 3B0#0D00000000000000
(1591150408.472201) can1 3BC#0000207F6A009600
(1591150408.473223) can1 423#2710000020000000
(1591150408.474324) can1 425#900000C00000B2C0
(1591150408.475238) can1 426#AA00000000005800
(1591150408.521014) can1 426#AA00000000005800
(1591150408.543133) can1 3EB#809E7080805000
(1591150408.545968) can1 53B#411200
(1591150408.570992) can1 3B0#0D00000000000000
(1591150408.571985) can1 3BC#0000207F6A009600
(1591150408.572975) can1 40A#C110090822450000
(1591150408.574045) can1 423#2710000020000000
(1591150408.575050) can1 425#900000C00000B2C0
(1591150408.576065) can1 426#AA00000000005800
(1591150408.637439) can1 426#AA00000000005800
(1591150408.645921) can1 541#011200
(1591150408.671203) can1 3B0#0D00000000000000
(1591150408.672062) can1 3BC#0000207F6A009600
(1591150408.673187) can1 000#
(1591150408.673230) can1 423#2710000020000000
(1591150408.674108) can1 425#900000C00000B2C0
(1591150408.675122) can1 426#AA00000000005800
(1591150408.706309) can1 124#0202000000000000
(1591150408.707313) can1 35E#8000000000000000
(1591150408.708344) can1 3E7#0000000000000000
(1591150408.709303) can1 41A#0000B860B8067590
(1591150408.721072) can1 626#AE00000000005800
(1591150408.741850) can1 501#0302000000000000
(1591150408.771064) can1 3B0#0D00000000000000
(1591150408.772067) can1 3BC#0000207F6A009600
(1591150408.773057) can1 40A#C00000B527514B00
(1591150408.774101) can1 423#2710000020000000
(1591150408.775097) can1 425#900000C00000B2C0
(1591150408.776112) can1 426#AA00000000005800
(1591150408.821012) can1 426#AA00000000005800
(1591150408.837004) can1 503#0B1200
(1591150408.871040) can1 3B0#0D00000000000000
(1591150408.872043) can1 3BC#0000207F6A009600
(1591150408.873071) can1 423#2710000020000000
(1591150408.874092) can1 425#900000C00000B2C0
(1591150408.875094) can1 426#AA00000000005800
(1591150408.879570) can1 125#0202000000000000
(1591150408.921031) can1 426#AA00000000005800
(1591150408.971357) can1 3B0#0D00000000000000
(1591150408.972178) can1 3BC#0010207F6A009600
(1591150408.973143) can1 40A#C100314654385733
(1591150408.974195) can1 423#2710000020000000
(1591150408.975189) can1 425#900000C00000B2C0
(1591150408.976231) can1 426#AA00000000005800
(1591150409.020972) can1 426#AA00000000005800
(1591150409.071067) can1 3B0#0D00000000000000
(1591150409.072071) can1 3BC#0000207F6A009600
(1591150409.073093) can1 423#27100000A0000000
(1591150409.074153) can1 53B#3B0100
(1591150409.074170) can1 425#900000C00000B2C0
(1591150409.075113) can1 426#AA00000000005800
(1591150409.121092) can1 426#AA00000000005800
(1591150409.171013) can1 3B0#0D00000000000000
(1591150409.172024) can1 3BC#0000207F6A009600
(1591150409.173067) can1 000#
(1591150409.173086) can1 40A#C101425434424542
(1591150409.174019) can1 423#2710000020000000
(1591150409.175023) can1 425#900000C00000B2C0
(1591150409.176036) can1 426#AA00000000005800
(1591150409.192258) can1 53B#3B0100
(1591150409.199987) can1 503#030100
(1591150409.202105) can1 501#0101000000000000
(1591150409.204793) can1 541#410100
(1591150409.206039) can1 53B#3B0100
(1591150409.207035) can1 527#270100
(1591150409.221063) can1 426#AA00000000005800
(1591150409.271058) can1 3B0#0D00000000000000
(1591150409.272076) can1 3BC#0000207F6A009600
(1591150409.273106) can1 423#2710000020000000
(1591150409.274112) can1 425#900000C00000B2C0
(1591150409.275136) can1 426#AA00000000005800
(1591150409.300807) can1 503#271200
(1591150409.321063) can1 426#AA00000000005800
(1591150409.371130) can1 083#000FFF7400007EBE
(1591150409.371993) can1 385#00EA02F219000000
(1591150409.373012) can1 3B0#0D00000000000000
(1591150409.374030) can1 3BC#0000207F6A009700
(1591150409.375048) can1 3E0#0000000083C00334
(1591150409.376076) can1 3E2#000000000000804A
(1591150409.377159) can1 000#
(1591150409.377176) can1 40A#C102343033323600
(1591150409.378079) can1 423#2710000020000000
(1591150409.379086) can1 425#900000C00000B2C0
(1591150409.380104) can1 426#AA00000000005800
(1591150409.381133) can1 10D#0000000000000000
(1591150409.382201) can1 42C#0000000000000000
(1591150409.391441) can1 3A0#1100800289240000
(1591150409.392035) can1 527#031200
(1591150409.401203) can1 3B2#0000004E0000FE00
(1591150409.402360) can1 501#0301000000000000
(1591150409.404776) can1 541#011100
(1591150409.406205) can1 53B#411100
(1591150409.411779) can1 3B3#0043050000000000
(1591150409.413421) can1 3E0#0000000080000335
(1591150409.421156) can1 3C3#0000010001410B00
(1591150409.421992) can1 426#AA00000000005800
(1591150409.431068) can1 3C4#0034940000C0A4B0
(1591150409.441010) can1 3C6#0000000000000000
(1591150409.451063) can1 3D0#1C41000000000000
(1591150409.471311) can1 3B0#0D00000000000000
(1591150409.472311) can1 3BC#0000207F6A009700
(1591150409.473346) can1 423#2710000020000000
(1591150409.474352) can1 425#900000C00000B2C0
(1591150409.475463) can1 000#
(1591150409.475480) can1 426#AA00000000005800
(1591150409.482156) can1 503#0B1200
(1591150409.521076) can1 426#AA00000000005800
(1591150409.543096) can1 3EB#809E7080805000
(1591150409.572762) can1 3BC#0000207F6A009700
(1591150409.573587) can1 40A#C10401630A461101
(1591150409.574623) can1 423#2710000020000000
(1591150409.575736) can1 000#
(1591150409.575753) can1 425#900000C00000B2C0
(1591150409.576215) can1 527#3B1100
(1591150409.577182) can1 426#AA00000000005800
(1591150409.581908) can1 501#0301000000000000
(1591150409.584785) can1 541#011100
(1591150409.586148) can1 53B#411100
(1591150409.621133) can1 426#AA00000000005800
(1591150409.663552) can1 503#0B1200
(1591150409.671115) can1 3B0#0D00000000000000
(1591150409.672120) can1 3BC#0000207F6A009700
(1591150409.673171) can1 423#2710000020000000
(1591150409.674167) can1 425#900000C00000B2C0
(1591150409.675177) can1 426#AA00000000005800
(1591150409.714280) can1 124#0202000000000000
(1591150409.715285) can1 35E#8800000000000000
(1591150409.716316) can1 3E7#0000000000000000
(1591150409.717282) can1 41A#00009860B8067590
(1591150409.721088) can1 426#AA00000000005800
(1591150409.751070) can1 50C#271400
(1591150409.777595) can1 3B0#0D00000000000000
(1591150409.779608) can1 3BC#0000207F6A009700
(1591150409.781605) can1 40A#C110090822450000
(1591150409.783641) can1 423#2710000020000000
(1591150409.785652) can1 425#900000C00000B2C0
(1591150409.787674) can1 426#AA00000000005800
(1591150409.821163) can1 426#AA00000000005800
(1591150409.830382) can1 50C#0C1400
(1591150409.841321) can1 527#3B1200
(1591150409.850345) can1 50C#0C0100
(1591150409.871099) can1 3B0#0D00000000000000
(1591150409.872121) can1 3BC#0000207F6A009700
(1591150409.873152) can1 423#2710000020000000
(1591150409.874167) can1 425#900000C00000B2C0
(1591150409.875174) can1 426#AA00000000005800
(1591150409.902631) can1 125#0202000000000000
(1591150409.921158) can1 426#AA00000000005800
(1591150409.926694) can1 53B#411200
(1591150409.971271) can1 3B0#0D00000000000000
(1591150409.972268) can1 3BC#0000207F6A009700
(1591150409.973260) can1 40A#C00000B527515700
(1591150409.974293) can1 423#2710000020000000
(1591150409.975298) can1 425#900000C00000B2C0
(1591150409.976314) can1 426#AA00000000005800
(1591150410.021035) can1 426#AA00000000005800
(1591150410.024855) can1 541#011200
(1591150410.071130) can1 3B0#0D00000000000000
(1591150410.072186) can1 3BC#0000207F6A009700
(1591150410.073217) can1 423#2710000020000000
(1591150410.074227) can1 425#900000C00000B2C0
(1591150410.075241) can1 426#AA00000000005800
(1591150410.121104) can1 426#AA00000000005800
(1591150410.122141) can1 501#0302000000000000
(1591150410.171115) can1 3B0#0D00000000000000
(1591150410.172110) can1 3BC#0000207F6A009710
(1591150410.173175) can1 000#
(1591150410.173193) can1 48A#C100314654385733
(1591150410.174138) can1 423#2710000020000000
(1591150410.175131) can1 425#900000C00000B2C0
(1591150410.176138) can1 426#AA00000000005800
(1591150410.207842) can1 503#0B1200
(1591150410.221041) can1 426#AA00000000005800
(1591150410.271175) can1 3B0#0D00000000000000
(1591150410.272168) can1 3BC#0000207F6A009700
(1591150410.273192) can1 423#2710000020000000
(1591150410.274203) can1 425#900000C00000B2C0
(1591150410.275217) can1 526#AA00000000005800
(1591150410.321248) can1 426#AA00000000005800
(1591150410.371106) can1 083#000FFF7400007EBE
(1591150410.372061) can1 385#00EA02F219000000
(1591150410.373091) can1 3B0#0D00000000000000
(1591150410.374093) can1 3BC#0000207F6A009800
(1591150410.375125) can1 3E0#0001000083C80335
(1591150410.376246) can1 3EA#000000000000804A
(1591150410.377113) can1 40A#C101425434424542
(1591150410.378143) can1 423#2710000020000000
(1591150410.379150) can1 425#900000C00000B2C0
(1591150410.380196) can1 426#AA00000000005800
(1591150410.381231) can1 42C#0000000000000000
(1591150410.382252) can1 10D#0000800000000000
(1591150410.390649) can1 50C#3B1200
(1591150410.391721) can1 000#
(1591150410.391738) can1 3A0#1100800289240000
(1591150410.393809) can1 527#3B1100
(1591150410.401055) can1 3B2#0000004E0000FE00
(1591150410.411159) can1 3B3#0043050000000000
(1591150410.412198) can1 3E0#0000000080000210
(1591150410.421054) can1 3C3#0000010401410B00
(1591150410.422074) can1 426#AA00000000005800
(1591150410.431178) can1 3C4#0034940000C0A4B0
(1591150410.441140) can1 3C6#0400000000000000
(1591150410.451179) can1 3D0#1C41000000000000
(1591150410.471376) can1 3B0#0D00000000000000
(1591150410.472378) can1 3BC#0000207F6A009800
(1591150410.473407) can1 423#2710000020000000
(1591150410.474418) can1 425#900000C00000B2C0
(1591150410.475433) can1 426#AA00000000005800
(1591150410.486623) can1 53B#413200
(1591150410.521160) can1 426#AA00000000005800
(1591150410.543120) can1 3EB#809E7080805000
(1591150410.561129) can1 10D#0000000000000000
(1591150410.571360) can1 3B0#0D00000000000000
(1591150410.572358) can1 3BC#0000207F6A009800
(1591150410.573382) can1 40A#C102343033323600
(1591150410.574362) can1 423#FFFFFFFF20000000
(1591150410.575346) can1 425#900000C00000B2C0
(1591150410.576358) can1 426#AA00000000005800
(1591150410.584834) can1 541#011200
(1591150410.599142) can1 104#6000020000000000
(1591150410.637511) can1 426#AA00000000005800
(1591150410.650928) can1 399#0000000000000000
(1591150410.671465) can1 3B0#0D00000000000000
(1591150410.672369) can1 3BC#0000207F6A009800
(1591150410.673415) can1 423#FFFFFFFF20000000
(1591150410.674435) can1 425#900000C00000B2C0
(1591150410.675479) can1 426#AA00000000005800
(1591150410.681999) can1 501#0302000000000000
(1591150410.721232) can1 426#AA00000000005800
(1591150410.722293) can1 124#0202000000000000
(1591150410.723304) can1 35E#8000000000000000
(1591150410.724336) can1 3E7#0000000000000000
(1591150410.725290) can1 41A#00009860B8067590
(1591150410.771289) can1 3B0#0D00000000000000
(1591150410.772299) can1 3BC#0000207F6A009800
(1591150410.772897) can1 503#0B1200
(1591150410.773869) can1 40A#C10401630A461101
(1591150410.776024) can1 423#FFFFFFFF20000000
(1591150410.776892) can1 425#900000C00000B2C0
(1591150410.777903) can1 426#AA00000000005800
(1591150410.821241) can1 000#
(1591150410.821257) can1 426#AA00000000005800
(1591150410.871422) can1 3B0#0D00000000000000
(1591150410.872263) can1 3BC#0000207F6A009800
(1591150410.873286) can1 423#FFFFFFFF20000000
(1591150410.874302) can1 425#900000C00000B2C0
(1591150410.875317) can1 626#AA00000000005800
(1591150410.921227) can1 426#AA00000000005800
(1591150410.925713) can1 125#0202000000000000
(1591150410.971503) can1 000#
(1591150410.971521) can1 3B0#0D00000000000000
(1591150410.972416) can1 3BC#0000207F6A009800
(1591150410.973489) can1 000#
(1591150410.973506) can1 40A#C110090822450000
(1591150410.974440) can1 423#FFFFFFFF20000000
(1591150410.975438) can1 425#900000C00000B2C0
(1591150410.976465) can1 426#AA00000000005800
(1591150411.021187) can1 426#AB00000000005800
(1591150411.071388) can1 3B0#0D00000000000000
(1591150411.072383) can1 3BC#0000207F6A009800
(1591150411.073405) can1 423#FFFFFFFF20000000
(1591150411.074414) can1 425#900000C00000B2C0
(1591150411.075428) can1 426#AA00000000005800
(1591150411.121305) can1 000#
(1591150411.121323) can1 426#AA00000000005800
(1591150411.126966) can1 53B#3B0100
(1591150411.135200) can1 503#030100
(1591150411.142743) can1 501#0101000000000000
(1591150411.144822) can1 541#410100
(1591150411.150847) can1 527#270100
(1591150411.171274) can1 3B0#0D00000000000000
(1591150411.172271) can1 3BC#0000207F6A009800
(1591150411.173273) can1 40A#C00000B527516300
(1591150411.175380) can1 423#FFFFFFFF20000000
(1591150411.176325) can1 425#900000C00000B2C0
(1591150411.177345) can1 426#AA00000000005800
(1591150411.221143) can1 426#AA00000000005800
(1591150411.271345) can1 3B0#0D00020000001000
(1591150411.272243) can1 3BC#0000207F6A009800
(1591150411.273265) can1 423#FFFFFFFF20000000
(1591150411.274301) can1 425#900000C00000B2C0
(1591150411.275293) can1 426#AA00000000005800
(1591150411.314536) can1 527#0B1200
(1591150411.316615) can1 503#0B1100
(1591150411.321201) can1 426#AA00000000005800
(1591150411.322237) can1 501#0301000000000000
(1591150411.324822) can1 541#011100
(1591150411.327002) can1 000#
(1591150411.327019) can1 53B#411100
(1591150411.371215) can1 083#000FFF7480007EBE
(1591150411.372183) can1 385#00EA02F219000000
(1591150411.373204) can1 3B0#0D00000000000000
(1591150411.374198) can1 3BC#0000207F6A009900
(1591150411.375234) can1 3E0#0000000083C00210
(1591150411.376264) can1 3E2#000000000000804A
(1591150411.377253) can1 40A#C100314654385733
(1591150411.378283) can1 423#FFFFFFFF20000000
(1591150411.379270) can1 425#900000C00000B2C0
(1591150411.380285) can1 426#AA00000000005800
(1591150411.381353) can1 10D#0000000000000000
(1591150411.382422) can1 42C#0000002000000100
(1591150411.391588) can1 3A0#1100800289240000
(1591150411.401219) can1 3B2#0000004E0000FE00
(1591150411.411471) can1 3B3#0043050000000000
(1591150411.412328) can1 3E0#0000000080000211
(1591150411.421189) can1 3C3#0000010011410B00
(1591150411.422213) can1 426#AA00000000005800
(1591150411.431234) can1 3C4#0034940000C0A4B0
(1591150411.441188) can1 3C6#0000000000000000
(1591150411.451336) can1 3D0#1C41000000000000
(1591150411.471432) can1 3B0#0D00000000000000
(1591150411.471642) can1 000#
(1591150411.472424) can1 3BC#0000207F6A009900
(1591150411.473448) can1 423#FFFFFFFF20000000
(1591150411.474456) can1 425#900000C00000B2C0
(1591150411.475469) can1 426#AA00000000005800
(1591150411.498752) can1 527#3B1200
(1591150411.521142) can1 426#AA00000000005800
(1591150411.543235) can1 3EB#809E7080815000
(1591150411.571190) can1 3B0#0D00000000000000
(1591150411.572265) can1 000#
(1591150411.572282) can1 3BC#0000207F6A009900
(1591150411.573142) can1 40A#C101425434424542
(1591150411.574166) can1 423#R8
(1591150411.575170) can1 425#900000C00000B2C0
(1591150411.576186) can1 426#AA00000000005800
(1591150411.587101) can1 53B#411200
(1591150411.621251) can1 426#AA00000000005800
(1591150411.671266) can1 3B0#0D00000000000000
(1591150411.672244) can1 3BC#0000207F6A009900
(1591150411.674275) can1 425#900000C00000B2C0
(1591150411.675290) can1 426#AA00000000005800
(1591150411.684819) can1 541#011200
(1591150411.690918) can1 50C#271400
(1591150411.718857) can1 399#0000000000000000
(1591150411.722096) can1 426#AA00000000005800
(1591150411.730971) can1 000#
(1591150411.730988) can1 124#0202000000000000
(1591150411.732901) can1 35E#8000000000000000
(1591150411.734964) can1 3E7#0000000000000000
(1591150411.736956) can1 41A#00009A60B8067590
(1591150411.770586) can1 50C#0C1400
(1591150411.771461) can1 3B0#0D00000000000000
(1591150411.772475) can1 3BC#0000207F6A009900
(1591150411.773450) can1 40A#C102343033323600
(1591150411.774474) can1 423#FFFFFFFF22000000
(1591150411.775481) can1 425#900000C00000B2C0
(1591150411.776495) can1 426#AA00000000005800
(1591150411.781893) can1 501#0302000000000000
(1591150411.790428) can1 50C#0C0100
(1591150411.821188) can1 426#AA00000000005800
(1591150411.871340) can1 3B0#0D00000000000000
(1591150411.872326) can1 3BC#0000207F6A009900
(1591150411.874517) can1 423#FFFFFFFF20000000
(1591150411.875387) can1 425#900000C00000B2C0
(1591150411.876402) can1 426#AA00000000005800
(1591150411.881134) can1 503#0B1200
(1591150411.921221) can1 426#AA00000000005800
(1591150411.948786) can1 125#0202000000000000
(1591150411.971371) can1 3B0#0D00000000000000
(1591150411.972361) can1 3BC#0000207F6A009900
(1591150411.973352) can1 40A#C10401630A461101
(1591150411.974379) can1 423#FFFFFFFF20000000
(1591150411.975386) can1 425#900000C00000B2C0
(1591150411.976397) can1 426#AA00000000005800
(1591150412.022014) can1 426#AA00000000005800
(1591150412.071454) can1 000#
(1591150412.071476) can1 3B0#0D00000000000000
(1591150412.072234) can1 3BC#0000207F6A009900
(1591150412.073254) can1 423#FFFFFFFF20000000
(1591150412.074303) can1 425#900000C00000B2C0
(1591150412.075282) can1 426#AA00000000005800
(1591150412.121369) can1 000#
(1591150412.121388) can1 426#AA00000000005800
(1591150412.143171) can1 503#030100
(1591150412.144845) can1 541#410100
(1591150412.147287) can1 53B#3B0100
(1591150412.150462) can1 50C#0C0100
(1591150412.153466) can1 527#270100
(1591150412.162155) can1 501#0101000000000000
(1591150412.171224) can1 3B0#0D00000000000000
(1591150412.172203) can1 3BC#0000207F6A009900
(1591150412.173195) can1 40A#C110090822450000
(1591150412.174225) can1 423#FFFFFFFF20000000
(1591150412.175227) can1 425#900000C00000B2C0
(1591150412.176238) can1 426#AA00000000005800
(1591150412.221256) can1 426#AA00000000005800
(1591150412.244004) can1 503#0B1200
(1591150412.271261) can1 3B0#0D00000000000000
(1591150412.272257) can1 3BC#0000207F6A009900
(1591150412.273278) can1 423#FFFFFFFF20000000
(1591150412.274286) can1 425#900000C00000B2C0
(1591150412.275300) can1 426#AA00000000005800
(1591150412.322376) can1 426#AA00000000005800
(1591150412.344952) can1 541#011100
(1591150412.347263) can1 53B#411100
(1591150412.350419) can1 50C#271100
(1591150412.358123) can1 527#3B1100
(1591150412.371231) can1 083#000FFF7400007EBE
(1591150412.372193) can1 385#00EA02F219000000
(1591150412.373216) can1 3B0#0D00000000000000
(1591150412.374208) can1 3BC#0000207F6A009A00
(1591150412.375242) can1 3E0#0000000083C00211
(1591150412.376269) can1 3E2#000000000000804A
(1591150412.377259) can1 40A#C00000B527516F00
(1591150412.378282) can1 423#FFFFFFFF20000000
(1591150412.379292) can1 425#900000C00000B2C0
(1591150412.380304) can1 426#AA00000000005800
(1591150412.381321) can1 10D#0000000000000000
(1591150412.382355) can1 3D0#1C41004000000000
(1591150412.383417) can1 42C#0000000000000000
(1591150412.391613) can1 3A0#1100800289240000
(1591150412.401180) can1 3B2#0000004E0000FE00
(1591150412.411310) can1 3B3#0043050000000000
(1591150412.412356) can1 3E0#0000000080000212
(1591150412.421217) can1 3C3#0000010001410B00
(1591150412.422212) can1 426#AA00000000005880
(1591150412.423249) can1 501#0302000000000000
(1591150412.431248) can1 3C4#0034940000C0A4B0
(1591150412.441262) can1 3C6#0000000000000000
(1591150412.451246) can1 3D0#1C41000000000000
(1591150412.471464) can1 3B0#0D00000000000000
(1591150412.472454) can1 3BC#0000207F6A009A00
(1591150412.473481) can1 423#FFFFFFFF20000000
(1591150412.474491) can1 425#900000C00000B2C0
(1591150412.475501) can1 426#AA00000000005800
(1591150412.506030) can1 503#0B1200
(1591150412.521457) can1 426#AA00000000005800
(1591150412.543153) can1 3EB#809E7080805000
(1591150412.571258) can1 3B0#0D00000000000000
(1591150412.572248) can1 3BC#0000207F6A009A00
(1591150412.573223) can1 40A#C100314654385733
(1591150412.574247) can1 423#FFFFFFFF20000000
(1591150412.575253) can1 425#900000C00000B2C0
(1591150412.576268) can1 426#AA00000000005800
(1591150412.637603) can1 426#AA00000000005800
(1591150412.639798) can1 399#0000000000000000
(1591150412.671532) can1 3B0#0D00000000000000
(1591150412.672384) can1 3BC#0000207F6A009A00
(1591150412.673410) can1 423#FFFFFFFF20000000
(1591150412.674414) can1 425#900000C00000B2C0
(1591150412.675447) can1 426#AA00000000005800
(1591150412.690495) can1 50C#271400
(1591150412.721297) can1 426#AA00000000005800
(1591150412.738205) can1 124#0202000000000000
(1591150412.739241) can1 35E#8000000000000000
(1591150412.740240) can1 3E7#0000000000000000
(1591150412.741199) can1 41A#00009860B8067590
(1591150412.771265) can1 3B0#0D00000000000000
(1591150412.772255) can1 3BC#0000207F6A009A00
(1591150412.773214) can1 40A#C101425434424542
(1591150412.774238) can1 423#FFFFFFFF20000000
(1591150412.775240) can1 425#900000C00000B2C0
(1591150412.776260) can1 426#AA00000000005800
(1591150412.862249) can1 501#0101000000000000
(1591150412.864875) can1 541#410100
(1591150412.867454) can1 53B#3B0100
(1591150412.868944) can1 503#030100
(1591150412.869659) can1 527#270100
(1591150412.870545) can1 50C#0C0100
(1591150412.871548) can1 3B0#0D00000000000000
(1591150412.872579) can1 3BC#0000207F6A009A00
(1591150412.873692) can1 000#
(1591150412.873708) can1 423#FFFFFFFF20000000
(1591150412.874611) can1 425#900400C00000B2C0
(1591150412.875625) can1 426#AA00000000005800
(1591150412.921302) can1 426#AA00000000005800
(1591150412.962217) can1 501#0302000000000000
(1591150412.971467) can1 3B0#0D00000000000000
(1591150412.972448) can1 125#0202000000000000
(1591150412.973407) can1 3BC#0000207F6A009A00
(1591150412.974385) can1 40A#C102343033323600
(1591150412.975406) can1 423#FFFFFFFF20000000
(1591150412.976413) can1 425#900000C00000B2C0
(1591150412.977426) can1 426#AA00000000005800
(1591150413.021522) can1 426#AA00000000005800
(1591150413.050356) can1 503#0C1200
(1591150413.071453) can1 3B0#0D00000000000000
(1591150413.072303) can1 3BC#0000207F6A009A00
(1591150413.073325) can1 423#FFFFFFFF20000000
(1591150413.074344) can1 425#900000C00000B2C0
(1591150413.075347) can1 426#AA00000000005800
(1591150413.121344) can1 426#AA00200000005800
(1591150413.150464) can1 50C#011200
(1591150413.156130) can1 527#011100
(1591150413.164861) can1 541#011100
(1591150413.167574) can1 53B#411100
(1591150413.171285) can1 3B0#0D00000000000000
(1591150413.172275) can1 3BC#0000207F6A009A00
(1591150413.173271) can1 40A#C10401630A461101
(1591150413.174295) can1 423#FFFFFFFF24000000
(1591150413.175300) can1 425#900000C00000B2C0
(1591150413.176315) can1 426#AA00000000005800
(1591150413.221265) can1 426#AA00000000005800
(1591150413.242119) can1 501#0302000000000000
(1591150413.271327) can1 3B0#0D00000000000000
(1591150413.272318) can1 3BC#0000207F6A009A00
(1591150413.273340) can1 423#FFFFFFFF20000000
(1591150413.274348) can1 425#900000C00000B2C0
(1591150413.275363) can1 426#AA00000000005800
(1591150413.321334) can1 426#AA00000000005800
(1591150413.332565) can1 503#0B1200
(1591150413.371357) can1 083#000FFF7400007EBE
(1591150413.372317) can1 385#00EA02F219000000
(1591150413.373348) can1 3B0#0D00000000000000
(1591150413.374343) can1 3BC#0000207F6A009B00
(1591150413.375489) can1 000#
(1591150413.375507) can1 3E0#0000000083C00212
(1591150413.376401) can1 3E2#000000000000804A
(1591150413.377392) can1 40A#C110090822450000
(1591150413.378410) can1 423#FFFFFFFF20000000
(1591150413.379417) can1 425#900000C00000B2C0
(1591150413.380454) can1 426#AA00000000005800
(1591150413.381457) can1 10D#0000000000000000
(1591150413.382517) can1 42C#0000000000000000
(1591150413.391705) can1 3A0#1100800289240000
(1591150413.401385) can1 3B2#0000004E0000FE00
(1591150413.411454) can1 3B3#0043050000000000
(1591150413.412510) can1 3E0#0000000080000213
(1591150413.421301) can1 3C3#0000010001410B00
(1591150413.422332) can1 426#AA00000000005800
(1591150413.431462) can1 3C4#0034940000C0A4B0
(1591150413.441453) can1 3C6#0000000000000000
(1591150413.451394) can1 3D0#1C41000000000000
(1591150413.471510) can1 3B0#0D00000000000000
(1591150413.472498) can1 3BC#0000207F6A009B00
(1591150413.473521) can1 423#FFFFFFFF20000000
(1591150413.474528) can1 425#900000D00000B2C0
(1591150413.475539) can1 426#AA00000000005800
(1591150413.521312) can1 426#AA00000000005800
(1591150413.530753) can1 50C#271200
(1591150413.543176) can1 3EB#809E7080805000
(1591150413.571319) can1 3B0#0D00000000000000
(1591150413.572300) can1 3BC#0000207F6A009B00
(1591150413.573283) can1 40A#D00000B527517B00
(1591150413.574314) can1 423#FFFFFFFF20000000
(1591150413.575315) can1 425#900000C00000B2C0
(1591150413.576335) can1 426#AA00000000005800
(1591150413.630301) can1 000#
(1591150413.637626) can1 426#AA00000000005800
(1591150413.639363) can1 527#3B1200
(1591150413.643724) can1 399#0000000000000000
(1591150413.671536) can1 3B0#0D00000000000000
(1591150413.672506) can1 000#
(1591150413.672523) can1 3BC#0000207F6A009B00
(1591150413.673442) can1 423#FFFFFFFF20000000
(1591150413.674433) can1 425#900000C00000B2C0
(1591150413.675451) can1 426#AA00000000005800
(1591150413.721378) can1 426#AA00000000005800
(1591150413.727828) can1 53B#411200
(1591150413.746177) can1 124#0202000000000000
(1591150413.747182) can1 35E#8000000000000000
(1591150413.748212) can1 3E7#0000000000000000
(1591150413.749171) can1 41A#00009860B8067590
(1591150413.771325) can1 3B0#0D00000000000000
(1591150413.772315) can1 3BC#0000207F6A009B00
(1591150413.773290) can1 40A#C100314654385733
(1591150413.774314) can1 423#FFFFFFFF20000000
(1591150413.775317) can1 425#900000C00000B2C0
(1591150413.776337) can1 426#AA00000000005800
(1591150413.821408) can1 426#AA00000000005800
(1591150413.824861) can1 541#011200
(1591150413.871399) can1 3B0#0D00000000000000
(1591150413.872386) can1 3BC#0000207F6A009B00
(1591150413.873409) can1 423#FFFFFFFF20000000
(1591150413.874420) can1 425#900000C00000B2C0
(1591150413.875432) can1 426#AA00000000005800
(1591150413.921319) can1 426#AA00000000005800
(1591150413.922352) can1 501#0302000000000000
(1591150413.971580) can1 3B0#0D00000000000000
(1591150413.972570) can1 3BC#0000207F6A009B00
(1591150413.973528) can1 40A#C101425434424542
(1591150413.974548) can1 423#FFFFFFFF20000000
(1591150413.975557) can1 425#900000C00000B2C0
(1591150413.976569) can1 426#AA00000000005800
(1591150413.994951) can1 1A5#0202000000000000
(1591150414.017984) can1 503#0B1200
(1591150414.021301) can1 426#AA00000000005800
(1591150414.071416) can1 3B0#0D00000000000000
(1591150414.072397) can1 3BC#0000207F6A009B00
(1591150414.073419) can1 423#FFFFFFFF20000000
(1591150414.074431) can1 425#900000C00000B2C0
(1591150414.075445) can1 426#AA00000000005800
(1591150414.121515) can1 426#AA00000000005800
(1591150414.171493) can1 000#
(1591150414.171512) can1 3B0#0D00000000000000
(1591150414.172373) can1 3BC#0000207F6A009B00
(1591150414.173364) can1 40A#C102343033323600
(1591150414.174386) can1 423#FFFFFFFF20100000
(1591150414.175389) can1 425#900000C00000B2C0
(1591150414.176387) can1 426#AA00000000005800
(1591150414.221329) can1 426#AA00000000005800
(1591150414.271462) can1 3B0#0D00000000000000
(1591150414.273409) can1 423#FFFFFFFF20000000
(1591150414.274418) can1 425#940000C00000B2C0
(1591150414.275431) can1 426#AA00000000005800
(1591150414.321352) can1 426#AA00000000005800
(1591150414.371528) can1 083#000FFF7400007EBE
(1591150414.372338) can1 385#00EA02F219000000
(1591150414.373360) can1 3B0#0D00000000000000
(1591150414.374449) can1 000#
(1591150414.374468) can1 3BC#0000207F6A009B00
(1591150414.375412) can1 3E0#0080000087C00213
(1591150414.376428) can1 3E2#000000000000804A
(1591150414.377419) can1 40A#C10401630A461101
(1591150414.378443) can1 423#FFFFFFFF20000000
(1591150414.379447) can1 425#900000C00000B2C0
(1591150414.380463) can1 426#AA00000000005800
(1591150414.381070) can1 503#030100
(1591150414.382092) can1 10D#0000000000000000
(1591150414.383167) can1 42C#0000000000000000
(1591150414.384183) can1 501#0101000000000000
(1591150414.384771) can1 527#270100
(1591150414.385377) can1 541#410100
(1591150414.387943) can1 53B#3B0100
(1591150414.391811) can1 3A0#1100800289240000
(1591150414.401393) can1 3B2#0000004E0000FE00
(1591150414.411505) can1 3B3#0043050000000000
(1591150414.412564) can1 3E0#0000000080000214
(1591150414.421350) can1 3C3#0000010001410B00
(1591150414.422402) can1 426#AA00000000005800
(1591150414.431449) can1 3C4#0034940000C0A4B0
(1591150414.441459) can1 3C6#0000000000000000
(1591150414.451453) can1 3D0#1C41000000000000
(1591150414.472002) can1 3B0#0D00000000000000
(1591150414.472832) can1 3BC#0000207F6A009B00
(1591150414.473914) can1 423#FFFFFFFF20000000
(1591150414.474876) can1 425#900000C00000B2C0
(1591150414.475885) can1 426#AA00000000005800
(1591150414.521443) can1 426#AA00000000005800
(1591150414.543264) can1 3EB#809E7084805000
(1591150414.567980) can1 52F#3B1200
(1591150414.571539) can1 3B0#0D00000000000000
(1591150414.572527) can1 3BC#0000207F6A009B00
(1591150414.573518) can1 40A#C110090822450000
(1591150414.574538) can1 423#FFFFFFFF20000000
(1591150414.575558) can1 425#900000C00000B2C0
(1591150414.576571) can1 426#AA00000000005800
(1591150414.621582) can1 426#AA00000000005800
(1591150414.668151) can1 53B#0B1200
(1591150414.671557) can1 3B0#0D00000010000000
(1591150414.672547) can1 3BC#0000207F6A009B00
(1591150414.673575) can1 423#FFFFFFFF20000000
(1591150414.674584) can1 425#900000C00000B2C0
(1591150414.675588) can1 426#AA00000000005800
(1591150414.682292) can1 501#0B01000000000000
(1591150414.683337) can1 503#0B1100
(1591150414.684891) can1 541#011100
(1591150414.721430) can1 426#AA00000000005800
(1591150414.754147) can1 164#0202000000000000
(1591150414.755150) can1 35E#8000000000000000
(1591150414.756182) can1 3E7#0000000000000000
(1591150414.757236) can1 000#
(1591150414.757253) can1 41A#00009860B8067590
(1591150414.771507) can1 3B0#0D00000000000000
(1591150414.772437) can1 3BC#0000207F6A009B00
(1591150414.773418) can1 40A#C00000B527518700
(1591150414.774456) can1 423#FFFFFFFF20000000
(1591150414.775456) can1 425#900000C00000B2C0
(1591150414.776469) can1 426#AA00000000005800
(1591150414.821549) can1 426#AA00000000005800
(1591150414.871488) can1 3B0#0D00000000000000
(1591150414.872481) can1 3BC#0001207F6A009B00
(1591150414.873518) can1 423#FFFFFFFF20000000
(1591150414.874501) can1 425#900000C00000B2C0
(1591150414.875513) can1 426#AA00000000005800
(1591150414.921517) can1 426#AA00000000005800
(1591150414.928183) can1 53B#3B0100
(1591150414.931337) can1 50C#271400
(1591150414.936239) can1 527#270100
(1591150414.959329) can1 399#0000000000000000
(1591150414.972795) can1 3B0#0D00000000000000
(1591150414.974895) can1 3BC#0000207F6A009B00
(1591150414.976861) can1 40A#C100314654385733
(1591150414.978883) can1 423#FFFFFFFF20000000
(1591150414.979743) can1 3EE#0102000000000000
(1591150414.980748) can1 425#900000C00000B2C0
(1591150414.981740) can1 3EE#0102000000000000
(1591150414.982775) can1 426#AA00000000005800
(1591150414.983860) can1 3EE#0102000000000000
(1591150414.987208) can1 3EE#0102000000000000
(1591150415.010600) can1 50C#411400
(1591150415.018054) can1 125#0202000000000000
(1591150415.021456) can1 426#AA04000000005800
(1591150415.028457) can1 53B#411200
(1591150415.030910) can1 50C#0C0100
(1591150415.071576) can1 3B0#0D00000000000000
(1591150415.072558) can1 3BC#0000207F6A009B00
(1591150415.073581) can1 423#FFFFFFFF20000000
(1591150415.074594) can1 425#900000C00000B2C0
(1591150415.075607) can1 426#AA00000000005800
(1591150415.121464) can1 426#AA00000000005800
(1591150415.124949) can1 541#011200
(1591150415.171504) can1 3B0#0D00000000000000
(1591150415.172458) can1 3BC#0000207F6A009B00
(1591150415.173419) can1 40A#C101425434424542
(1591150415.174447) can1 423#FFFFFFFF20000000
(1591150415.175452) can1 425#900000C00000B2C0
(1591150415.176463) can1 426#AA00000000005800
(1591150415.221446) can1 426#AA00000000005800
(1591150415.222513) can1 501#0302000000000000
(1591150415.271544) can1 3B0#0D00000000000000
(1591150415.272517) can1 3BC#0000207F6A009B00
(1591150415.273524) can1 423#FFFFFFFF20000000
(1591150415.274542) can1 425#900000C00000B2C0
(1591150415.275643) can1 000#
(1591150415.275664) can1 426#AA00000000005800
(1591150415.308188) can1 503#0B1200
(1591150415.321572) can1 426#AA00000000005800
(1591150415.371527) can1 083#000FFF7400007EBE
(1591150415.372486) can1 385#00EA02F219000000
(1591150415.373517) can1 3B0#0D00000000000000
(1591150415.374531) can1 3BC#0000207F6A009C00
(1591150415.375560) can1 3E0#0000000083C00214
(1591150415.376590) can1 3E2#000000000000804A
(1591150415.377565) can1 40A#C102343033323600
(1591150415.378588) can1 423#FFFFFFFF20000000
(1591150415.379630) can1 425#900000C00000B2C0
(1591150415.380610) can1 426#AA00000000005800
(1591150415.381676) can1 42C#0000000000000000
(1591150415.382726) can1 10D#0000000000000000
(1591150415.391852) can1 3A0#1100800289240000
(1591150415.401545) can1 3B2#0000004E0000FE00
(1591150415.411785) can1 3B3#0043050000000000
(1591150415.412588) can1 3E0#0000000080000215
(1591150415.421437) can1 3C3#0000010001410B00
(1591150415.422457) can1 426#AA00000000005800
(1591150415.431540) can1 3C4#0034940000C0A4B0
(1591150415.441481) can1 3C6#0000000000000000
(1591150415.451562) can1 3D0#1C41000000000000
(1591150415.471725) can1 3B0#0D00000000000000
(1591150415.472726) can1 3BC#0000207F6A009C00
(1591150415.473749) can1 423#FFFFFFFF20000000
(1591150415.474753) can1 425#900000C00000B2C0
(1591150415.475766) can1 426#AA00000000005800
(1591150415.490557) can1 50C#411200
(1591150415.508405) can1 53B#411100
(1591150415.509237) can1 527#3B1100
(1591150415.521492) can1 426#AA00000000005800
(1591150415.543236) can1 3EB#809E7080805000
(1591150415.571481) can1 10D#0000000000000000
(1591150415.578061) can1 40A#C10401630A461101
(1591150415.578974) can1 423#FFFFFFFF20000000
(1591150415.579981) can1 425#900000C00000B2C0
(1591150415.580996) can1 426#AA00000000005800
(1591150415.584912) can1 541#011200
(1591150415.637803) can1 426#AA00000000005800
(1591150415.671784) can1 3B0#0D00000000000000
(1591150415.672588) can1 3BC#0000207F6A009C00
(1591150415.673616) can1 423#FFFFFFFF20000000
(1591150415.674624) can1 425#900000C00000B2C0
(1591150415.675633) can1 426#AA00000000005800
(1591150415.682234) can1 501#0302000000000000
(1591150415.721544) can1 426#AA00000000005800
(1591150415.762121) can1 124#0202000000000000
(1591150415.763127) can1 35E#8000000000000000
(1591150415.764161) can1 3E7#0000000000000000
(1591150415.765116) can1 41A#00009860B8067590
(1591150415.771611) can1 3B0#0D00000000000000
(1591150415.772245) can1 503#0B1200
(1591150415.773192) can1 3BC#0000207F6A009C00
(1591150415.774185) can1 40A#C110090822450000
(1591150415.775206) can1 423#FFFFFFFF20000000
(1591150415.776210) can1 425#900000C00000B2C0
(1591150415.777221) can1 426#AA00000000005800
(1591150415.821519) can1 426#AA00000000005800
(1591150415.871570) can1 3B0#0D00000000000000
(1591150415.872551) can1 3BC#0000207F6A009C00
(1591150415.873573) can1 423#FFFFFFFF21000000
(1591150415.874596) can1 425#900000C00000B2C0
(1591150415.875602) can1 426#AA00000000005800
(1591150415.921530) can1 426#AA00000000005800
(1591150415.971695) can1 3B0#0D00000000000000
(1591150415.972699) can1 3BC#0000207F6A009C00
(1591150415.973681) can1 40A#C00000B527519300
(1591150415.974803) can1 423#FFFFFFFF20000000
(1591150415.975716) can1 425#900000C00000B2C0
(1591150415.976728) can1 426#AA00000000005800
(1591150416.021643) can1 000#
(1591150416.021661) can1 426#AA00000000005800
(1591150416.041116) can1 125#0202000000000000
(1591150416.071607) can1 3B0#0D00000000000000
(1591150416.072565) can1 3BC#0000207F6A009C00
(1591150416.073587) can1 423#FFFFFFFF20000000
(1591150416.074600) can1 425#900000C00000B2C0
(1591150416.075613) can1 426#AA00000000005800
(1591150416.123243) can1 426#AA00000800005800
(1591150416.124925) can1 541#410100
(1591150416.128772) can1 53B#3B0100
(1591150416.134782) can1 503#030100
(1591150416.142457) can1 501#0101000000000000
(1591150416.143518) can1 527#270100
(1591150416.171547) can1 3B0#0D00000000000000
(1591150416.172543) can1 3BC#0000207F6A009C00
(1591150416.173520) can1 40A#C100314654385733
(1591150416.174552) can1 423#FFFFFFFF20000000
(1591150416.175559) can1 525#900000C00000B2C0
(1591150416.176568) can1 426#AA00000000005800
(1591150416.271707) can1 3B0#0D00000000000000
(1591150416.272595) can1 3BC#0000207F6A009C00
(1591150416.273607) can1 423#FFFFFFFF20000000
(1591150416.274630) can1 425#900000C00000B2C0
(1591150416.275637) can1 426#AA00000000005800
(1591150416.307170) can1 527#0B1200
(1591150416.308803) can1 53B#011100
(1591150416.316172) can1 503#0B1100
(1591150416.321538) can1 426#AA00000000005800
(1591150416.322598) can1 501#0301000000000000
(1591150416.324998) can1 541#011100
(1591150416.371565) can1 083#000FFF7400007EBE
(1591150416.372528) can1 385#00EA02F219000000
(1591150416.373550) can1 3B0#0D00000000000000
(1591150416.374545) can1 3BC#0000207F6A009D00
(1591150416.375589) can1 3E0#0000000083C00215
(1591150416.376604) can1 3E2#000000000000804A
(1591150416.377563) can1 40A#C101425434424542
(1591150416.378586) can1 423#FFFFFFFF20000000
(1591150416.379593) can1 425#900000C00000B2C0
(1591150416.380702) can1 000#
(1591150416.381636) can1 10D#0000000000000000
(1591150416.382710) can1 42C#0000000000000000
(1591150416.391964) can1 3A0#1100800289240000
(1591150416.411771) can1 3B3#0043050000000000
(1591150416.412675) can1 3E0#0000000080000216
(1591150416.421707) can1 3C3#0000010001410B00
(1591150416.422713) can1 426#AA00000000005800
(1591150416.431571) can1 3C4#0034940000C0A4B0
(1591150416.441613) can1 3C6#0000000000000000
(1591150416.451592) can1 3D0#1C41000000000000
(1591150416.471790) can1 3B0#0D00000000000000
(1591150416.472770) can1 3BC#0000207F6A009D00
(1591150416.473791) can1 423#FFFFFFFF20000000
(1591150416.474866) can1 425#900000C00000B2C0
(1591150416.475817) can1 426#R8
(1591150416.491346) can1 527#3B1200
(1591150416.521708) can1 426#AA00000000005800
(1591150416.543329) can1 3EB#809E7080805000
(1591150416.573477) can1 3BC#0000207F6A009D00
(1591150416.574301) can1 40A#C102343033323600
(1591150416.575339) can1 423#FFFFFFFF20000000
(1591150416.576342) can1 425#900000C00000B2C1
(1591150416.577357) can1 426#AA00000000005800
(1591150416.589070) can1 53B#411200
(1591150416.621609) can1 426#AA00000000005800
(1591150416.671643) can1 3B0#0D00000000000000
(1591150416.672723) can1 3BC#0000207F6A009D00
(1591150416.673657) can1 423#FFFFFFFF20000000
(1591150416.674689) can1 425#900000C00000B2C0
(1591150416.675688) can1 426#AA00000000005800
(1591150416.684974) can1 541#011200
(1591150416.691118) can1 50C#271400
(1591150416.722310) can1 426#AA00000000005800
(1591150416.726674) can1 399#0000000000000000
(1591150416.730022) can1 399#0000000000000000
(1591150416.770253) can1 124#0202000000000000
(1591150416.770701) can1 50C#0C1400
(1591150416.771687) can1 35E#8000000000000000
(1591150416.772698) can1 3B0#0D00000000000000
(1591150416.773736) can1 3E7#0000000000000000
(1591150416.774671) can1 3BC#0000207F6A009D00
(1591150416.775591) can1 41A#00009860B8067590
(1591150416.776530) can1 40A#C10401630A461101
(1591150416.777553) can1 423#FFFFFFFF20000000
(1591150416.778559) can1 425#900000C00000B2C0
(1591150416.779574) can1 426#AA00000000005800
(1591150416.782525) can1 501#0302000000000000
(1591150416.790627) can1 50C#0C0100
(1591150416.821602) can1 466#AA00000000005800
(1591150416.872686) can1 3BC#0000207F6A009D00
(1591150416.873707) can1 423#FFFFFFFF20000000
(1591150416.874719) can1 425#900000C00000B2C0
(1591150416.875730) can1 426#AA00000000005800
(1591150416.880717) can1 503#0B1A00
(1591150416.921816) can1 426#AA00000000005800
(1591150416.971765) can1 3B0#0D00000000000000
(1591150416.972755) can1 3BC#0000207F6A009D00
(1591150416.973868) can1 40A#C110090822450000
(1591150416.974764) can1 423#FFFFFFFF20000000
(1591150416.975773) can1 425#900000C00000B2C0
(1591150416.977529) can1 426#AA00000000005800
(1591150417.021878) can1 426#AA00000000005800
(1591150417.064200) can1 125#0202000000000000
(1591150417.070622) can1 50C#031200
(1591150417.071669) can1 3B0#0D00000000000000
(1591150417.072658) can1 3BC#000020FF6A009D00
(1591150417.073681) can1 423#FFFFFFFF20000000
(1591150417.074690) can1 425#900000C00000B2C0
(1591150417.075700) can1 426#AA00000000005800
(1591150417.082532) can1 501#0301000000000000
(1591150417.084758) can1 527#3B1100
(1591150417.085362) can1 541#011100
(1591150417.089192) can1 53B#411100
(1591150417.121696) can1 426#AA00000000005800
(1591150417.162871) can1 503#0B1200
(1591150417.171610) can1 3B0#0D00000000000000
(1591150417.172624) can1 3BC#0000207F6A009D00
(1591150417.173619) can1 40A#C00000B527519F00
(1591150417.174644) can1 423#FFFFFFFF20000000
(1591150417.175668) can1 425#900000C00000B2C0
(1591150417.177848) can1 426#AA00000000005800
(1591150417.221692) can1 426#AA00000000005800
(1591150417.272044) can1 000#
(1591150417.272064) can1 3F0#0D00000000000000
(1591150417.272751) can1 3BC#0000207F6A009D00
(1591150417.273784) can1 423#FFFFFFFF20000000
(1591150417.274798) can1 425#900000C00000B2C0
(1591150417.275803) can1 426#AA00000000005800
(1591150417.321755) can1 426#AA00000000005800
(1591150417.350636) can1 50C#271200
(1591150417.371605) can1 083#000FFF7400007EBE
(1591150417.372569) can1 385#00EA02F219000000
(1591150417.373622) can1 3B0#0D00000000000000
(1591150417.374595) can1 3BC#0000207F6A009E00
(1591150417.375639) can1 3E0#0000000083C00216
(1591150417.376669) can1 3E2#000000000000804A
(1591150417.377644) can1 40A#C100314654385733
(1591150417.378666) can1 423#FFFFFFFF20000000
(1591150417.379674) can1 425#900000C00000B2C0
(1591150417.380691) can1 426#AA00000000005800
(1591150417.381753) can1 42C#0000000000000000
(1591150417.382790) can1 10D#0000000000000000
(1591150417.392004) can1 3A0#5100800289240000
(1591150417.393022) can1 3D0#1C41000000000000
(1591150417.401711) can1 3B2#0000004E0000FE00
(1591150417.411756) can1 3B3#0043050000000000
(1591150417.412781) can1 3E0#0000000080000A00
(1591150417.421684) can1 3C3#0000010001410B00
(1591150417.422760) can1 426#AA00000000005800
(1591150417.431643) can1 3C4#0034940000C0A4B0
(1591150417.441661) can1 3C6#0000000000000000
(1591150417.451731) can1 3D0#1C41000000000000
(1591150417.453032) can1 527#3B1200
(1591150417.471841) can1 3B0#0D00000000000000
(1591150417.472839) can1 3BC#0000207F6A009E00
(1591150417.473893) can1 423#FFFFFFFF20000000
(1591150417.474865) can1 425#900000C00000B2C0
(1591150417.475880) can1 426#AA00000000005800
(1591150417.521710) can1 426#AA00000000005800
(1591150417.543320) can1 3EB#809E7080805000
(1591150417.549434) can1 53B#411200
(1591150417.571788) can1 3B0#0D00000000000000
(1591150417.572677) can1 3BC#0000207F6A009E00
(1591150417.573635) can1 40A#C101425434424542
(1591150417.574667) can1 423#FFFFFFFF20000000
(1591150417.575685) can1 425#900000C00000B2C0
(1591150417.576709) can1 426#AA00000000005800
(1591150417.637916) can1 426#AA00000000005800
(1591150417.645140) can1 541#011200
(1591150417.648377) can1 399#0000000000000000
(1591150417.671854) can1 3B0#0D00000000000000
(1591150417.672737) can1 3BC#0000207F6A009E00
(1591150417.673760) can1 423#FFFFFFFF20000000
(1591150417.674766) can1 425#900000C00000B2C0
(1591150417.675780) can1 426#AA00000000005800
(1591150417.721883) can1 426#AA00000000005800
(1591150417.742592) can1 501#0302000000000000
(1591150417.771688) can1 3B0#0D00000000000001
(1591150417.772683) can1 3BC#0000207F6A009E00
(1591150417.773658) can1 40A#C102343033323600
(1591150417.774669) can1 423#FFFFFFFF20000000
(1591150417.775675) can1 425#900000C00000B2C0
(1591150417.776690) can1 426#AA00000000005800
(1591150417.778112) can1 124#0202000000000000
(1591150417.779114) can1 35E#8000000000000000
(1591150417.780147) can1 3E7#0000000000000000
(1591150417.781104) can1 41A#00009860B8067590
(1591150417.821719) can1 426#AA00000000005800
(1591150417.828125) can1 503#0B1200
(1591150417.871753) can1 3B0#0D00000000000000
(1591150417.872694) can1 3BC#0000207F6A009E00
(1591150417.873717) can1 423#FFFFFFFF20000000
(1591150417.874743) can1 425#900000C00000B2C0
(1591150417.875757) can1 426#AA00000000005800
(1591150417.921682) can1 426#AA00000000005800
(1591150417.971864) can1 3B0#0D00000000000000
(1591150417.972891) can1 3BC#0000207F6A009E00
(1591150417.973910) can1 40A#C10401630A461101
(1591150417.974907) can1 423#FFFFFFFF20000000
(1591150417.975929) can1 425#900000C00000B2C0
(1591150417.976927) can1 426#AA00000000005800
(1591150418.021636) can1 426#AA00000000005800
(1591150418.071738) can1 3B0#0D00000000000000
(1591150418.072790) can1 3BC#0000207F6A009E00
(1591150418.073948) can1 423#FFFFFFFF20000000
(1591150418.074823) can1 425#900000C00000B2C0
(1591150418.075871) can1 426#AA00000000005800
(1591150418.081915) can1 3A0#1500800289240000
(1591150418.087354) can1 125#0202000000000000
(1591150418.089823) can1 53B#3B0100
(1591150418.090324) can1 503#030100
(1591150418.092235) can1 3C3#2000010001410B00
(1591150418.102677) can1 501#0101000000000000
(1591150418.104993) can1 541#410100
(1591150418.107784) can1 527#270100
(1591150418.121750) can1 426#AA00000000005800
(1591150418.171671) can1 3B0#0D00000000000000
(1591150418.172667) can1 3BC#0000207F6A009F00
(1591150418.173659) can1 40A#C110090822450000
(1591150418.174742) can1 423#FFFFFFFF20000000
(1591150418.175689) can1 425#900000C00000B2C0
(1591150418.176702) can1 426#AA00000000005800
(1591150418.189594) can1 53B#411200
(1591150418.221785) can1 3CC#00343A0100C1A4B8
(1591150418.222799) can1 426#AA00000000005800
(1591150418.231765) can1 3B2#00010C4F4000FE00
(1591150418.271870) can1 000#
(1591150418.271890) can1 3B0#0D00000000000000
(1591150418.272796) can1 3BC#0000328000009F00
(1591150418.273948) can1 000#
(1591150418.273966) can1 423#2710000028000000
(1591150418.274805) can1 425#180000E00080B2D0
(1591150418.275819) can1 426#AA00000000005800
(1591150418.284955) can1 541#271200
(1591150418.291804) can1 503#271100
(1591150418.302690) can1 501#0301000000000000
(1591150418.321805) can1 3C4#0034490100C1A4B8
(1591150418.322789) can1 426#AA00000000005800
(1591150418.371877) can1 083#000FFF7400007EBE
(1591150418.372831) can1 385#00EA02F219000000
(1591150418.373902) can1 3B0#0D00000000000000
(1591150418.374486) can1 527#3B1200
(1591150418.375425) can1 3BC#00003272B5009F00
(1591150418.376463) can1 3E0#0000000083C00A00
(1591150418.377494) can1 3E2#000000000000804A
(1591150418.378476) can1 40A#C00000B52751AB00
(1591150418.379495) can1 423#2710000028000000
(1591150418.380500) can1 425#180000E00080B2D0
(1591150418.381516) can1 426#AA00000000005800
(1591150418.382531) can1 10D#0000000000000000
(1591150418.383600) can1 52C#0000000000000000
(1591150418.392098) can1 3A0#1500800289240000
(1591150418.401666) can1 3B2#00010C4F4000FE00
(1591150418.411790) can1 3B3#0043050000000000
(1591150418.412830) can1 3E0#0000000080000A21
(1591150418.421742) can1 3C3#2000010001410B00
(1591150418.422838) can1 3C4#0034580100C1A4B8
(1591150418.423757) can1 426#AA00000000005800
(1591150418.441781) can1 3C6#0008000000400000
(1591150418.451710) can1 3C4#0034580000C0A4B0
(1591150418.452727) can1 3D0#1C41000000000000
(1591150418.469691) can1 000#
(1591150418.469709) can1 53B#411200
(1591150418.472080) can1 3B0#0D00000000000000
(1591150418.473063) can1 3BC#00003272B1009F00
(1591150418.474073) can1 423#2710000028000000
(1591150418.475092) can1 425#180000E00080B2D0
(1591150418.476092) can1 426#AA00000000005800
(1591150418.521788) can1 3C4#0034670100C1A4B8
(1591150418.522794) can1 426#AA00000000005800
(1591150418.543273) can1 3EB#809E7080805000
(1591150418.564954) can1 541#011200
(1591150418.571792) can1 3B0#0D00000000000000
(1591150418.572774) can1 3BC#00003272B5009F00
(1591150418.573757) can1 40A#C100314654385733
(1591150418.574780) can1 423#2710000028000000
(1591150418.575785) can1 425#180000E00080B2D0
(1591150418.576798) can1 426#AA00000000005800
(1591150418.621706) can1 3C4#0034760100C1A4B8
(1591150418.622696) can1 426#AA00000000005800
(1591150418.662690) can1 501#0302000000000000
(1591150418.671755) can1 3B0#0D00000000000000
(1591150418.672753) can1 3BC#00013272B8089F00
(1591150418.673777) can1 423#2710000028000000
(1591150418.674785) can1 425#180000E00080B2D0
(1591150418.675798) can1 426#AA00000000005800
(1591150418.721661) can1 3C4#0034850100C1A4B8
(1591150418.722671) can1 426#AA00000000005800
(1591150418.756790) can1 503#271200
(1591150418.761167) can1 50C#271400
(1591150418.773512) can1 000#
(1591150418.779720) can1 3B0#0D00000000000000
(1591150418.781942) can1 3BC#00003272BC009F00
(1591150418.783880) can1 40A#C101425434424542
(1591150418.785863) can1 423#2710000028000000
(1591150418.786706) can1 124#0202000000000000
(1591150418.788874) can1 35E#8000000000000000
(1591150418.790943) can1 3E7#0000000000000000
(1591150418.792924) can1 41A#00009860B8067590
(1591150418.794939) can1 425#180000E00080B2D0
(1591150418.796957) can1 426#AA00000000005800
(1591150418.803111) can1 399#0000000000000000
(1591150418.821861) can1 3C4#0034940100C1A4B8
(1591150418.822700) can1 426#AA00000000005800
(1591150418.830842) can1 000#
(1591150418.830859) can1 50C#0C1400
(1591150418.844445) can1 527#3B1200
(1591150418.850705) can1 50C#0C0100
(1591150418.851719) can1 3B2#00010C4E4000FE00
(1591150418.871844) can1 3B0#0D00000000000000
(1591150418.872831) can1 3BC#00003272BF009F00
(1591150418.873896) can1 423#2710000028000000
(1591150418.874879) can1 425#180000E00080B2D0
(1591150418.875891) can1 426#AA00000000005800
(1591150418.921646) can1 3C4#0034A30100C1A4B8
(1591150418.922655) can1 426#AA00000000005800
(1591150418.929785) can1 53B#411200
(1591150418.951878) can1 000#
(1591150418.951895) can1 3B2#00010C4F4000FE00
(1591150418.972015) can1 3B0#0D00000000000000
(1591150418.973005) can1 3BC#00003272C2009F00
(1591150418.973986) can1 40A#C102343033323600
(1591150418.974996) can1 423#2710000028000000
(1591150418.975994) can1 425#180000E00080B310
(1591150418.977010) can1 426#AA00000000005800
(1591150419.021688) can1 3C4#0034B20100C1A4B8
(1591150419.022698) can1 426#AA00000000005800
(1591150419.025019) can1 541#011200
(1591150419.071761) can1 3B0#0D00000000000000
(1591150419.072747) can1 3BC#00003272C6009F00
(1591150419.073862) can1 423#2710000028000000
(1591150419.074778) can1 425#180000E00080B310
(1591150419.075792) can1 426#AA00000000005800
(1591150419.110361) can1 125#0202000000000000
(1591150419.121706) can1 3C4#0034C10100C1A4B8
(1591150419.122766) can1 426#AA00000000005800
(1591150419.123754) can1 501#0302000000000000
(1591150419.171738) can1 3B0#0D00000000000000
(1591150419.172719) can1 3BC#00003272C900A000
(1591150419.173716) can1 40A#C10401630A461101
(1591150419.174730) can1 423#2710000028000000
(1591150419.175724) can1 425#180000E00080B310
(1591150419.176741) can1 426#AA00000010005800
(1591150419.219160) can1 503#0C1200
(1591150419.221839) can1 3C4#0034D00100C1A4B8
(1591150419.222815) can1 426#AA00000000405800
(1591150419.271821) can1 3B0#0D00000000000000
(1591150419.272809) can1 3BC#00003272C900A000
(1591150419.273864) can1 423#2711000028000000
(1591150419.274914) can1 425#180000E00080B310
(1591150419.275834) can1 426#AA00000000005800
(1591150419.310703) can1 50C#3B1200
(1591150419.315051) can1 527#3B1100
(1591150419.321664) can1 3C4#0034DF0100C1A4B8
(1591150419.322687) can1 426#AA00000000005800
(1591150419.371707) can1 083#000FFF7400007EBE
(1591150419.372672) can1 385#00EA02F219000000
(1591150419.373695) can1 3B0#0D00000000000000
(1591150419.374680) can1 3BC#00003272CB00A000
(1591150419.375725) can1 3E0#0000000083C00A01
(1591150419.376757) can1 3E2#000000000000804A
(1591150419.377748) can1 40A#C110090822450000
(1591150419.378763) can1 423#2710000028000000
(1591150419.379762) can1 425#180800E000C0B310
(1591150419.380808) can1 426#AA00000000005800
(1591150419.381820) can1 10D#0000000000000000
(1591150419.382885) can1 42C#0000000000000000
(1591150419.392115) can1 3A0#1500800289240000
(1591150419.401677) can1 3B2#00010C4F4000FE00
(1591150419.410014) can1 53B#411200
(1591150419.411892) can1 3B3#0043050000000000
(1591150419.421756) can1 3C3#2000010001410B00
(1591150419.422739) can1 3C4#0034EE0100C1A4B8
(1591150419.423762) can1 426#AA00000000005800
(1591150419.441779) can1 3C6#0000000000000000
(1591150419.451713) can1 3C4#0034EE0000C0A4B0
(1591150419.452744) can1 3D0#1C41000000000000
(1591150419.471964) can1 3B0#0D00000000000000
(1591150419.472942) can1 3BC#00003272CB00A000
(1591150419.473996) can1 423#2710000028000000
(1591150419.474959) can1 425#180000E00080B310
(1591150419.476059) can1 000#
(1591150419.476076) can1 426#AA00000000005800
(1591150419.505033) can1 541#011200
(1591150419.521759) can1 3C4#0034FD0100C1A4B8
(1591150419.522771) can1 426#AA00000000005800
(1591150419.543298) can1 3EB#809E7080805000
(1591150419.551765) can1 3B2#R8
(1591150419.571773) can1 3B0#0D00000000000000
(1591150419.572754) can1 3BC#00003272CB00A000
(1591150419.573737) can1 40A#C00000B52751B700
(1591150419.574754) can1 423#2710000028000000
(1591150419.575753) can1 425#180000E00080B310
(1591150419.576767) can1 426#AA00000000005800
(1591150419.602732) can1 501#0302000000000000
(1591150419.637935) can1 3C4#00340C0100C1A4B8
(1591150419.639959) can1 426#AA00000000005800
(1591150419.651046) can1 399#0000000000000000
(1591150419.651861) can1 3B2#00010C4F4000FE00
(1591150419.672066) can1 3B0#0D00000000000000
(1591150419.672945) can1 3BC#00003272CB00A000
(1591150419.673981) can1 423#2710000028000000
(1591150419.674991) can1 425#180000E00080B310
(1591150419.676019) can1 426#AA00000000005800
(1591150419.690770) can1 50C#271400
(1591150419.702972) can1 503#0C1200
(1591150419.710743) can1 50C#0C0100
(1591150419.721799) can1 3C4#00341B0100C1A4B8
(1591150419.722813) can1 426#AA00000000005800
(1591150419.771761) can1 3B0#0D00000000000000
(1591150419.772741) can1 3BC#00003272CB00A100
(1591150419.773726) can1 40A#C100314654385733
(1591150419.774742) can1 423#2710000028000000
(1591150419.775739) can1 425#180000E00080B310
(1591150419.776759) can1 426#AA00000000005800
(1591150419.794018) can1 124#0202000000000000
(1591150419.795018) can1 35E##08000010000000000
(1591150419.796048) can1 3E7#0000000000000000
(1591150419.797007) can1 41A#00009860B8067590
(1591150419.810711) can1 50C#0C0200
(1591150419.821751) can1 3C4#00342A0100C1A4B8
(1591150419.822764) can1 426#AA00000000005800
(1591150419.872177) can1 3B0#0D00000020000000
(1591150419.873783) can1 3BC#00003272CB00A000
(1591150419.875411) can1 423#2710000028000000
(1591150419.877022) can1 425#180000E00080B310
(1591150419.878651) can1 426#AA00000000005800
(1591150419.902999) can1 501#0302000000000000
(1591150419.921792) can1 3C4#0034390100C1A4B8
(1591150419.922805) can1 10980000#AA00000000005800
(1591150419.972046) can1 000#
(1591150419.972070) can1 3B0#0D00000000000000
(1591150419.972941) can1 3BC#00003272CB00A000
(1591150419.973933) can1 40A#C101425434424542
(1591150419.974915) can1 423#2710000028000000
(1591150419.975914) can1 425#180000E00080B310
(1591150419.976930) can1 426#AA00000000005800
(1591150419.985242) can1 503#0C1200
(1591150420.021813) can1 3C4#0034480100C1A4B8
(1591150420.022822) can1 426#AA00000000005800
(1591150420.070739) can1 50C#011200
(1591150420.071854) can1 3B0#0D00000000000000
(1591150420.072451) can1 527#3B1100
(1591150420.073402) can1 3BC#00003272CB00A000
(1591150420.074417) can1 423#2710000028000000
(1591150420.075415) can1 425#180000E00080B310
(1591150420.076431) can1 426#AA00000000005800
(1591150420.084992) can1 541#011100
(1591150420.090250) can1 53B#411100
(1591150420.121788) can1 3C4#0034570100C1A4B8
(1591150420.122798) can1 426#AA00000000005800
(1591150420.133467) can1 125#0602000000000000
(1591150420.162815) can1 501#0302000000000000
(1591150420.171806) can1 3B0#0D00000000000000
(1591150420.172790) can1 3BC#00003272CB00A000
(1591150420.173765) can1 40A#C102343033323600
(1591150420.174782) can1 423#2710000028000000
(1591150420.175779) can1 425#180000E00080B310
(1591150420.176793) can1 426#AA00000000005800
(1591150420.221774) can1 0F100000#0034660100C1A4B8
(1591150420.222786) can1 426#AA0010000000D800
(1591150420.247282) can1 503#0C1200
(1591150420.271859) can1 3B0#0D00000000000000
(1591150420.272840) can1 0EF00000#00003272CB00A000
(1591150420.273891) can1 423#2710000028000000
(1591150420.274855) can1 625#180000E00080B310
(1591150420.275870) can1 426#AA00000000005800
(1591150420.321972) can1 3C4#0034750100C1A4B8
(1591150420.322973) can1 426#AA00000000005800
(1591150420.331021) can1 50C#271200
(1591150420.371861) can1 083#000FFF7400007EBE
(1591150420.372742) can1 385#00EA02F219000000
(1591150420.373763) can1 3B0#0D00000000000000
(1591150420.374752) can1 3BC#00003272CB00A000
(1591150420.375914) can1 3E0#1000000083C00A02
(1591150420.376818) can1 3E2#000000000000804A
(1591150420.377809) can1 40A#C10401630A461101
(1591150420.378824) can1 423#2710000028000000
(1591150420.379834) can1 425#180000E00080B310
(1591150420.380838) can1 426#AA00000000005800
(1591150420.381984) can1 53B#3B0100
(1591150420.382007) can1 42C#0000000000000000
(1591150420.382929) can1 10D#0000000000000000
(1591150420.392244) can1 3A0#1500800289240000
(1591150420.401736) can1 3B2#00010C4F4000FE00
(1591150420.411907) can1 3B3#0043050000000000
(1591150420.412965) can1 3E0#0000000080000A03
(1591150420.419989) can1 527#3B1200
(1591150420.421936) can1 3C3#2000010001410B00
(1591150420.422923) can1 3C4#0034840100C1A4B8
(1591150420.423991) can1 426#AA00000000005800
(1591150420.441899) can1 3C6#0000000000000000
(1591150420.451871) can1 3C4#0034840000C0A4B0
(1591150420.452893) can1 3D0#1C41000000000000
(1591150420.472097) can1 3B0#0D00000000000000
(1591150420.473077) can1 3BC#00003272CB00A000
(1591150420.474110) can1 423#2710000028000000
(1591150420.475107) can1 425#180000E00080B310
(1591150420.476122) can1 426#AA00000000005800
(1591150420.510416) can1 53B#411200
(1591150420.510621) can1 000#
(1591150420.521853) can1 3C4#0034930100C1A4B8
(1591150420.522863) can1 426#AA00000000005800
(1591150420.543374) can1 3EB#809E7080805000
(1591150420.571831) can1 3B0#0D00000000000000
(1591150420.572812) can1 3BC#00003272CB00A080
(1591150420.573802) can1 40A#C110090822450000
(1591150420.574814) can1 423#2710000428000000
(1591150420.575813) can1 425#180000E00080B310
(1591150420.576828) can1 426#AA00000000005800
(1591150420.604995) can1 541#011200
(1591150420.638088) can1 000#
(1591150420.638105) can1 3C4#0034940100C1A4B8
(1591150420.639989) can1 426#AA00000000005800
(1591150420.653354) can1 399#0000000000000000
(1591150420.656675) can1 399#0000000000000000
(1591150420.671894) can1 3B0#0D00000000000000
(1591150420.672877) can1 3BC#00003272CB00A000
(1591150420.673931) can1 423#2710000028000000
(1591150420.674903) can1 425#180000E00080B310
(1591150420.675996) can1 000#
(1591150420.676014) can1 426#AA00000000005800
(1591150420.702981) can1 501#0302000000000000
(1591150420.721860) can1 426#AA00000000005800
(1591150420.771854) can1 3B0#0D00000000000000
(1591150420.772832) can1 3BC#00003272CB00A000
(1591150420.773849) can1 40A#C00000B52751C300
(1591150420.774834) can1 423#2710000028000000
(1591150420.775832) can1 425#180000E00080B310
(1591150420.776847) can1 426#AA00000000005810
(1591150420.791583) can1 503#0C1200
(1591150420.801993) can1 124#0202000000000000
(1591150420.802994) can1 35E#8000000000000000
(1591150420.804028) can1 3E7#0000000000000000
(1591150420.804985) can1 41A#00009860B8067590
(1591150420.821955) can1 426#AA00000000005800
(1591150420.871878) can1 3B0#0D00000000000000
(1591150420.872856) can1 3BC#00003272CB00A000
(1591150420.873900) can1 423#2710000028000000
(1591150420.874870) can1 425#180000E00080B310
(1591150420.875885) can1 426#AA00000000005800
(1591150420.922160) can1 426#AA00000000005800
(1591150420.972167) can1 3B0#0D00000000000010
(1591150420.973009) can1 3BC#00003272CB00A000
(1591150420.974014) can1 40A#C100314654385733
(1591150420.975009) can1 423#2710000028000000
(1591150420.976007) can1 425#180000E00080B310
(1591150420.977022) can1 426#AA00000000005800
(1591150421.021873) can1 426#AA00000000005800
(1591150421.053655) can1 503#030100
(1591150421.062861) can1 501#0101000000000000
(1591150421.065067) can1 541#410100
(1591150421.070797) can1 000#
(1591150421.070815) can1 53B#3B0100
(1591150421.071915) can1 3B8#0D00000000000000
(1591150421.072897) can1 3BC#00003272CB00A000
(1591150421.073950) can1 423#2710000028000000
(1591150421.074933) can1 425#180000E00080B310
(1591150421.075661) can1 527#270100
(1591150421.076469) can1 426#AA00000000005800
(1591150421.121943) can1 426#AA00000000005800
(1591150421.154449) can1 503#271200
(1591150421.156507) can1 125#0202000000000000
(1591150421.171929) can1 3B0#0D00000000000000
(1591150421.172935) can1 3BC#00003272CB00A100
(1591150421.173957) can1 40A#C101425434424542
(1591150421.174885) can1 423#2710000028000000
(1591150421.175871) can1 425#180000E00080B350
(1591150421.176886) can1 426#AA00000000005800
(1591150421.221944) can1 426#AA00000000005800
(1591150421.238430) can1 527#035200
(1591150421.242885) can1 501#0301000000000000
(1591150421.245076) can1 541#011100
(1591150421.250702) can1 53B#411100
(1591150421.271904) can1 3B0#0D00000000000000
(1591150421.272889) can1 3BC#00003272CB00A100
(1591150421.273952) can1 423#2710000028000000
(1591150421.274903) can1 425#380000E10080B350
(1591150421.275916) can1 426#AA00000000005800
(1591150421.321925) can1 426#AA00000000005800
(1591150421.335875) can1 503#273200
(1591150421.371834) can1 083#000FFF7400007FBE
(1591150421.372800) can1 385#00EA02F219000000
(1591150421.373866) can1 3B0#0D00000000000000
(1591150421.374901) can1 000#
(1591150421.374919) can1 3BC#00003272CB00A100
(1591150421.375861) can1 3E0#0000000083C00A03
(1591150421.376892) can1 3E2#000000000000804A
(1591150421.377906) can1 40A#C102343033323600
(1591150421.378967) can1 000#
(1591150421.378984) can1 423#2710000028000000
(1591150421.379875) can1 425#180000E00080B350
(1591150421.380887) can1 426#AA00000000005800
(1591150421.381952) can1 42C#R8
(1591150421.382976) can1 10D#0000000000000000
(1591150421.392290) can1 3A0#1500800289240000
(1591150421.401849) can1 3B2#00010C4F4000FE00
(1591150421.411941) can1 3B3#0043050000000000
(1591150421.412981) can1 3E0#0000000080000A04
(1591150421.421909) can1 3C3#2000010001410B00
(1591150421.422904) can1 426#AA00000000005800
(1591150421.423508) can1 527#3B1200
(1591150421.431915) can1 3C4#0034940100C1A4B8
(1591150421.442042) can1 000#
(1591150421.442058) can1 3C6#0000000000000000
(1591150421.451923) can1 3D0#1C41000000000000
(1591150421.472115) can1 3B0#0D00000000000000
(1591150421.473103) can1 3BC#00003272CB00A100
(1591150421.474159) can1 423#2710000028000000
(1591150421.475110) can1 425#180004E00080B350
(1591150421.476126) can1 426#AA00000000005800
(1591150421.510833) can1 53B#411200
(1591150421.521932) can1 426#AA00000000005800
(1591150421.543334) can1 3EB#809E7080805000
(1591150421.562046) can1 3A0#1400800289240000
(1591150421.571892) can1 3B0#0D00000000000000
(1591150421.572870) can1 3BC#00003272CB00A100
(1591150421.573903) can1 40A#C10401630A461101
(1591150421.574884) can1 423#2710000028000000
(1591150421.575872) can1 425#180000E00080B350
(1591150421.576889) can1 426#AA00000000005800
(1591150421.602126) can1 3A0#2400800289240000
(1591150421.603166) can1 3D0#0241020000001000
(1591150421.605064) can1 541#011200
(1591150421.612157) can1 3B3#0040050000000020
(1591150421.613141) can1 3C4#0034948100C1A4B8
(1591150421.614164) can1 3C6#8000000000000000
(1591150421.622036) can1 426#AA00000000005800
(1591150421.662038) can1 3A0#4400800289240000
(1591150421.672199) can1 3B0#0D00000000000000
(1591150421.673283) can1 000#
(1591150421.673301) can1 3B3#0040050000000030
(1591150421.674219) can1 3B8#6900000000000000
(1591150421.676192) can1 3C3#0000010001410B00
(1591150421.677208) can1 423#2710000028000000
(1591150421.678199) can1 425#180000E00080B350
(1591150421.678368) can1 000#
(1591150421.679231) can1 426#AA00000000005800
(1591150421.702042) can1 3B3#0043050000008030
(1591150421.703231) can1 000#
(1591150421.703248) can1 501#0302000000000000
(1591150421.711691) can1 50C#270400
(1591150421.738036) can1 426#AA00000000005800
(1591150421.740054) can1 41A#0000FF60B8067590
(1591150421.746659) can1 399#0000000008000000
(1591150421.772068) can1 3B0#0D00000000000008
(1591150421.772907) can1 3BC#00003272CB00A100
(1591150421.773942) can1 40A#C110090822450000
(1591150421.774920) can1 423#2710000028000000
(1591150421.775910) can1 425#280000E00080B350
(1591150421.776925) can1 426#AA00000000005800
(1591150421.790844) can1 50C#0C0400
(1591150421.799556) can1 503#270200
(1591150421.801908) can1 083#000FFF740001FFFF
(1591150421.809975) can1 04900000#0202000000000000
(1591150421.810979) can1 35E#8000000000000000
(1591150421.811571) can1 50C#0C0100
(1591150421.812663) can1 000#
(1591150421.812680) can1 3E7#0000000000000000
(1591150421.813569) can1 41A#0000FF60B8067590
(1591150421.821969) can1 426#FF00000000F73CC0
(1591150421.871982) can1 3B8#0D00000000000000
(1591150421.872971) can1 3BC#00003272CB00A100
(1591150421.873996) can1 423#2710000028000000
(1591150421.874985) can1 425#280000E00080B351
(1591150421.875986) can1 426#FF00000000F778C0
(1591150421.892250) can1 3B3#0043850000040030
(1591150421.893287) can1 527#3B1200
(1591150421.921932) can1 426#FF00000000F7A0C0
(1591150421.972164) can1 3B0#0D00000000000000
(1591150421.973112) can1 3BC#00003272CB00A100
(1591150421.974150) can1 40A#C00000B52751CF00
(1591150421.975163) can1 423#2710000028000000
(1591150421.976149) can1 425#280000E00080B351
(1591150421.977155) can1 426#AA00000000F7DCC0
(1591150421.991142) can1 53B#411200
(1591150422.021930) can1 426#AA00000000F704C0
(1591150422.072166) can1 3B0#0D00000000000000
(1591150422.072970) can1 3BC#00003272CB00A100
(1591150422.074577) can1 423#2710000028000000
(1591150422.076182) can1 425#280000E00080B351
(1591150422.077742) can1 426#AA00000000F740C0
(1591150422.085208) can1 000#
(1591150422.085398) can1 541#011200
(1591150422.121975) can1 426#AA00000000F768C0
(1591150422.162261) can1 3B3#0040051200000030
(1591150422.172571) can1 3B0#0D00000000000000
(1591150422.174691) can1 000#
(1591150422.174708) can1 3BC#00003272CB00A200
(1591150422.180763) can1 125#0202000000000000
(1591150422.181603) can1 3E8#00001B6400000480
(1591150422.182517) can1 40A#C100314654385733
(1591150422.183541) can1 423#2710000028000000
(1591150422.184526) can1 3E8#00001B6400000480
(1591150422.185469) can1 425#280000E00080B351
(1591150422.186469) can1 426#AA00000000F7A4C0
(1591150422.188624) can1 501#0302000000000000
(1591150422.190713) can1 3E8#00001B6400000480
(1591150422.198442) can1 3E8#00001B6400000480
(1591150422.200638) can1 3E8#00001B6400000480
(1591150422.222040) can1 426#AA00000000F7CCC0
(1591150422.231212) can1 50C#270400
(1591150422.272058) can1 3B0#0D00000000000000
(1591150422.273033) can1 3BC#00003272CB00A200
(1591150422.274049) can1 423#2710000028000000
(1591150422.275039) can1 425#280000E00080B351
(1591150422.276030) can1 426#AA00000000F708C0
(1591150422.283363) can1 503#0B0200
(1591150422.290753) can1 50C#0C0100
(1591150422.321871) can1 426#AA00000000F730D0
(1591150422.341865) can1 083#000FFF7400017EC9
(1591150422.372555) can1 385#00EA02F219000000
(1591150422.374206) can1 3B0#0D00000000000000
(1591150422.375825) can1 3BC#00003272CC00A200
(1591150422.377430) can1 3E0#0000000083C00A04
(1591150422.379094) can1 3E2#040000000000804A
(1591150422.380628) can1 40A#C101425434424542
(1591150422.382251) can1 423#2710000028000000
(1591150422.383923) can1 10D#0000000000000000
(1591150422.385540) can1 425#280000E00080B351
(1591150422.387109) can1 426#AA00000000F76CC0
(1591150422.388762) can1 42C#0000000000000000
(1591150422.392363) can1 3A0#4400800289240000
(1591150422.401915) can1 083#000FFF7400017EF4
(1591150422.402880) can1 3F2#00010C4F4000FE00
(1591150422.412029) can1 3B3#0043051200000030
(1591150422.413058) can1 3E0#0000000080100701
(1591150422.421917) can1 3C3#0000010001410B00
(1591150422.422940) can1 426#AA00000000F794C0
(1591150422.431858) can1 3C4#0034948100C1A4B8
(1591150422.441867) can1 3C6#8000000000000000
(1591150422.444841) can1 41A#00009860B8067590
(1591150422.451911) can1 3D0#0241000000000000
(1591150422.461817) can1 083#0000006000017ED4
(1591150422.471014) can1 50C#0B0200
(1591150422.472141) can1 3B0#0D00000000000000
(1591150422.473116) can1 3BC#00003272CB00A200
(1591150422.474133) can1 423#2710000028000000
(1591150422.475156) can1 000#
(1591150422.475163) can1 425#280000E00080B351
(1591150422.476129) can1 426#AA00000000F7D0C0
(1591150422.483160) can1 509#0301000000000000
(1591150422.484929) can1 503#0B0100
(1591150422.485528) can1 541#010100
(1591150422.486592) can1 527#3B1100
(1591150422.491341) can1 000#
(1591150422.491348) can1 53B#411100
(1591150422.521840) can1 083#0000006000017EEA
(1591150422.522855) can1 426#AA00000000F7F8C0
(1591150422.543345) can1 3EB#809E7080805000
(1591150422.572348) can1 53B#3B0100
(1591150422.572355) can1 3B0#0D00000000000000
(1591150422.573949) can1 3BC#00003272CC00A200
(1591150422.575534) can1 40A#C102343033323600
(1591150422.577154) can1 423#2710000028000000
(1591150422.578759) can1 425#280000E00080B351
(1591150422.580339) can1 426#AA00020000F734C0
(1591150422.581982) can1 083#0000006000017EF4
(1591150422.621005) can1 000#
(1591150422.635787) can1 000#
(1591150422.637831) can1 426#AA00000000F75CC0
(1591150422.642184) can1 083#0000006000017EB3
(1591150422.644174) can1 3A0#4500800289240000
(1591150422.647411) can1 399#0000000000000000
(1591150422.650765) can1 399#0000000000000000
(1591150422.652900) can1 3E0#0403000087D00701
(1591150422.656144) can1 399#0000000000000000
(1591150422.671979) can1 3B0#0D00000000000000
(1591150422.672931) can1 3BC#00003272CC00A200
(1591150422.673948) can1 423#2710000028000000
(1591150422.674938) can1 425#280000E00080B351
(1591150422.675928) can1 426#AA01000000F798C0
(1591150422.690765) can1 50C#270400
(1591150422.701929) can1 083#0000006000017EB3
(1591150422.721961) can1 426#AA00000000F7C0C0
(1591150422.731125) can1 50C#0C0100
(1591150422.741908) can1 3E0#0000000083D00701
(1591150422.743181) can1 501#0101000000000000
(1591150422.745093) can1 541#410100
(1591150422.746946) can1 503#030100
(1591150422.751271) can1 53B#3B0900
(1591150422.752504) can1 527#270100
(1591150422.761977) can1 083#0000006000017EC9
(1591150422.771969) can1 3B0#0D00000000000000
(1591150422.772989) can1 000#
(1591150422.772996) can1 3BC#00003272CB00A200
